Script started on 2025-04-04 18:54:28-04:00 [COMMAND="bash -c './core-testing && pytest ./core/'" TERM="xterm-256color" TTY="/dev/pts/1" COLUMNS="71" LINES="22"]
Please ensure you are running this script on the post-production UTHP hardware (eMMC).
Also ensure the J1939 and J1708 buses are powered.
Are you connected to the Cascadia CAN bus and the Brake Board? (y/n) y
Setting up the environment for testing the core uthp tests...
=====================================================
Unique identifiers for UTHP-R1-0079:
mmcblk1      
|-mmcblk1p1  7601-6C2E
`-mmcblk1p2  9a7d22fb-f60f-4f84-972f-32775ffb5283
mmcblk1boot0 
mmcblk1boot1 
Setting up the CAN interface...
Setting up the Brake Board...
Environment setup should be complete... waiting for user to confirm hardware is ready.
Press any key to continue...
Starting the core uthp tests...
[1m============================== test session starts ==============================[0m
platform linux -- Python 3.12.9, pytest-8.0.2, pluggy-1.4.0
rootdir: /home/uthp/uthp-tests/core
configfile: pytest.ini
plugins: anyio-3.6.1
[1mcollecting ... [0m[1mcollecting 9 items                                                              [0m[1mcollecting 25 items                                                             [0m[1mcollecting 34 items                                                             [0m[1mcollected 40 items                                                              [0m

core/test_can-utils.py candump output:
   can0  18F0090B   [8]  FF FE 3E 71 7D 42 7D FF
  can0  0CF00300   [8]  DD 00 FF FF FF FC FF FF
  can0  0CF00400   [8]  50 7D 84 FF FF 00 F6 7D
  can0  18F0090B   [8]  FF FE 3E 71 7D 42 7D FF
  can0  10FF0021   [8]  82 00 00 00 FF 3F 4D C8
  can0  0CF00400   [8]  50 7D 84 FF FF 00 F6 7D
  can0  18FEF117   [8]  FF FF FF FF FF FF FF F0
  can0  18FEF121   [8]  F7 FF FF 0F FF FF FF FF
  can0  18FEF131   [8]  CF FF FF F7 00 FF FF 0F
  can0  18F0090B   [8]  FF FE 3E 71 7D 42 7D FF
  can0  0CF00400   [8]  50 7D 84 FF FF 00 F6 7D
  can0  18FEDF00   [8]  85 FF FF FF FF FF FF FF
  can0  1892FE00   [8]  FF FF FF FF FF FF FF FF
  can0  18F0000F   [8]  DF 7D 7D FF 0F FF FF 28
  can0  18F00100   [8]  FF FF FF FF 00 FF FF FF
  can0  14F00121   [8]  FF FF FF FF FF FF FF FF
  can0  18FEE000   [8]  00 00 00 00 00 00 00 00
  can0  18FEF100   [8]  FF FF FE FC FF FF 00 FF
  can0  18FEF200   [8]  FF FF 00 00 00 00 FF FF
  can0  18F0090B   [8]  FF FE 3E 71 7D 42 7D FF
  can0  0CF00400   [8]  50 7D 84 FF FF 00 F6 7D
  can0  0C0A0021   [8]  FC FF FF FF FF FF FF FF
  can0  18F0090B   [8]  FF FE 3E 71 7D 42 7D FF
  can0  0CF00400   [8]  50 7D 84 FF FF 00 F6 7D
  can0  14F0010B   [8]  0F 00 FF FF FF 1C FF FF
  can0  14FDC40B   [8]  FF 08 5F FF FF FF FF FF
  can0  14FE4F0B   [8]  FF FF FF FF FF FF FF FF
  can0  14FEF031   [8]  FF FF FF FF FF FF CC FF
  can0  14FF07E6   [8]  FF FF FF FF FF FF FF FF
  can0  18F0090B   [8]  FF FE 3E 71 7D 42 7D FF
  can0  0CF00300   [8]  DD 00 FF FF FF FC FF FF
  can0  0CF00400   [8]  50 7D 84 FF FF 00 F6 7D
  can0  18F0090B   [8]  FF FE 3E 71 7D 42 7D FF
  can0  10FF0021   [8]  82 00 00 00 FF 3F 4D C8
  can0  0CF00400   [8]  50 7D 84 FF FF 00 F6 7D
  can0  18F00131   [8]  FF FF CF FF FF FF FF FF
  can0  18F0090B   [8]  FF FE 3E 71 7D 42 7D FF
  can0  0CF00400   [8]  50 7D 84 FF FF 00 F6 7D
  can0  18FEDF00   [8]  85 FF FF FF FF FF FF FF
  can0  18F0090B   [8]  FF FE 3E 71 7D 42 7D FF
  can0  0CF00400   [8]  50 7D 84 FF FF 00 F6 7D
  can0  18F0090B   [8]  FF FE 3E 71 7D 42 7D FF
  can0  0CF00400   [8]  50 7D 84 FF FF 00 F6 7D
  can0  18FEBF0B   [8]  FF FE FE FE FE FE FF FF
  can0  18F0090B   [8]  FF FE 3E 71 7D 42 7D FF
  can0  0CF00300   [8]  DD 00 FF FF FF FC FF FF
  can0  0CF00400   [8]  50 7D 84 FF FF 00 F6 7D
  can0  18F0090B   [8]  FF FE 3E 71 7D 42 7D FF
  can0  10FF0021   [8]  82 00 00 00 FF 3F 4D C8
  can0  0CF00400   [8]  50 7D 84 FF FF 00 F6 7D
  can0  18FEF117   [8]  FF FF FF FF FF FF FF F0
  can0  18FEF121   [8]  F7 FF FF 0F FF FF FF FF
  can0  18FEF131   [8]  CF FF FF F7 00 FF FF 0F
  can0  18F0090B   [8]  FF FE 3E 71 7D 57 7D FF
  can0  0CF00400   [8]  50 7D 84 FF FF 00 F6 7D
  can0  18FEDF00   [8]  85 FF FF FF FF FF FF FF
  can0  1892FE00   [8]  FF FF FF FF FF FF FF FF
  can0  18F0000F   [8]  DF 7D 7D FF 0F FF FF 28
  can0  18F00100   [8]  FF FF FF FF 00 FF FF FF
  can0  14F00121   [8]  FF FF FF FF FF FF FF FF
  can0  18FEE000   [8]  00 00 00 00 00 00 00 00
  can0  18FEF100   [8]  FF FF FE FC FF FF 00 FF
  can0  18FEF200   [8]  FF FF 00 00 00 00 FF FF
  can0  18F0090B   [8]  FF FE 3E 71 7D 57 7D FF
  can0  0CF00400   [8]  50 7D 84 FF FF 00 F6 7D
  can0  0C0A0021   [8]  FC FF FF FF FF FF FF FF
  can0  18FFC025   [8]  43 0C FF 40 50 F0 FF FF
  can0  18F0090B   [8]  FF FE 3E 71 7D 57 7D FF
  can0  0CF00400   [8]  50 7D 84 FF FF 00 F6 7D
  can0  14F0010B   [8]  0F 00 FF FF FF 1C FF FF
  can0  14FDC40B   [8]  FF 08 5F FF FF FF FF FF
  can0  14FE4F0B   [8]  FF FF FF FF FF FF FF FF
  can0  18FFC125   [8]  FF FC 5A 33 01 00 00 00
  can0  14FEF031   [8]  FF FF FF FF FF FF CC FF
  can0  14FF07E6   [8]  FF FF FF FF FF FF FF FF
  can0  18F0090B   [8]  FF FE 3E 71 7D 57 7D FF
  can0  0CF00300   [8]  DD 00 FF FF FF FC FF FF
  can0  0CF00400   [8]  50 7D 84 FF FF 00 F6 7D
  can0  18FFC225   [8]  00 10 A0 01 C6 01 57 00
  can0  18FFC325   [8]  25 41 F3 50 C0 00 41 C0
  can0  18F0090B   [8]  FF FE 3E 71 7D 57 7D FF
  can0  10FF0021   [8]  82 00 00 00 FF 3F 4D C8
  can0  0CF00400   [8]  50 7D 84 FF FF 00 F6 7D
  can0  18FFC425   [8]  13 D4 13 D4 F0 FF F0 FF
  can0  18F00131   [8]  FF FF CF FF FF FF FF FF
  can0  18FFC725   [8]  43 00 FC FF FF FF FF FF
  can0  18F0090B   [8]  FF FE 3E 71 7D 57 7D FF
  can0  0CF00400   [8]  50 7D 84 FF FF 00 F6 7D
  can0  18FEDF00   [8]  85 FF FF FF FF FF FF FF
  can0  18FFC525   [8]  01 05 15 14 01 44 00 01
  can0  18F0090B   [8]  FF FE 3E 71 7D 42 7D FF
  can0  0CF00400   [8]  50 7D 84 FF FF 00 F6 7D
  can0  18FFC625   [8]  10 00 00 00 00 00 20 17
  can0  18FFC925   [8]  00 00 00 00 00 00 F0 FF
  can0  18F0090B   [8]  FF FE 3E 71 7D 42 7D FF
  can0  0CF00400   [8]  50 7D 84 FF FF 00 F6 7D
  can0  18FEBF0B   [8]  FF FE FE FE FE FE FF FF
  can0  18FFCA25   [8]  02 46 5E 5E 40 1F 1C 25
  can0  18FD0517   [8]  7F FF FF FF FF FF FF FF
  can0  18F0090B   [8]  FF FE 3E 71 7D 42 7D FF
  can0  0CF00300   [8]  DD 00 FF FF FF FC FF FF
  can0  0CF00400   [8]  50 7D 84 FF FF 00 F6 7D
  can0  18FF0817   [8]  00 0C 00 00 FF FF FF FF
  can0  18F0090B   [8]  FF FE 3E 71 7D 42 7D FF
  can0  10FF0021   [8]  82 00 00 00 FF 3F 4D C8
  can0  0CF00400   [8]  50 7D 84 FF FF 00 F6 7D
  can0  18FEF117   [8]  FF FF FF FF FF FF FF F0
  can0  18FEF121   [8]  F7 FF FF 0F FF FF FF FF
  can0  18FEF131   [8]  CF FF FF F7 00 FF FF 0F
  can0  18F0090B   [8]  FF FE 3E 71 7D 42 7D FF
  can0  0CF00400   [8]  50 7D 84 FF FF 00 F6 7D
  can0  18FEDF00   [8]  85 FF FF FF FF FF FF FF
  can0  1892FE00   [8]  FF FF FF FF FF FF FF FF
  can0  18F0000F   [8]  DF 7D 7D FF 0F FF FF 28
  can0  18F00100   [8]  FF FF FF FF 00 FF FF FF
  can0  14F00121   [8]  FF FF FF FF FF FF FF FF
  can0  18FEE000   [8]  00 00 00 00 00 00 00 00
  can0  18FEF100   [8]  FF FF FE FC FF FF 00 FF
  can0  18FEF200   [8]  FF FF 00 00 00 00 FF FF
  can0  18F0090B   [8]  FF FE 3E 71 7D 42 7D FF
  can0  0CF00400   [8]  50 7D 84 FF FF 00 F6 7D
  can0  0C0A0021   [8]  FC FF FF FF FF FF FF FF
  can0  18F0090B   [8]  FF FE 3E 71 7D 42 7D FF
  can0  0CF00400   [8]  50 7D 84 FF FF 00 F6 7D
  can0  14F0010B   [8]  0F 00 FF FF FF 1C FF FF
  can0  14FDC40B   [8]  FF 08 5F FF FF FF FF FF
  can0  14FE4F0B   [8]  FF FF FF FF FF FF FF FF
  can0  14FEF031   [8]  FF FF FF FF FF FF CC FF
  can0  14FF07E6   [8]  FF FF FF FF FF FF FF FF
  can0  18F0090B   [8]  FF FE 3E 71 7D 42 7D FF
  can0  0CF00300   [8]  DD 00 FF FF FF FC FF FF
  can0  0CF00400   [8]  50 7D 84 FF FF 00 F6 7D
  can0  18F0090B   [8]  FF FE 3E 71 7D 42 7D FF
  can0  10FF0021   [8]  82 00 00 00 FF 3F 4D C8
  can0  0CF00400   [8]  50 7D 84 FF FF 00 F6 7D
  can0  18F00131   [8]  FF FF CF FF FF FF FF FF
  can0  18F0090B   [8]  FF FE 3E 71 7D 42 7D FF
  can0  0CF00400   [8]  50 7D 84 FF FF 00 F6 7D
  can0  18FEDF00   [8]  85 FF FF FF FF FF FF FF
  can0  18F0090B   [8]  FF FE 3E 71 7D 42 7D FF
  can0  0CF00400   [8]  50 7D 84 FF FF 00 F6 7D
  can0  18F0090B   [8]  FF FE 3E 71 7D 42 7D FF
  can0  0CF00400   [8]  50 7D 84 FF FF 00 F6 7D
  can0  18FEBF0B   [8]  FF FE FE FE FE FE FF FF
  can0  18F0090B   [8]  FF FE 3E 71 7D 42 7D FF
  can0  0CF00300   [8]  DD 00 FF FF FF FC FF FF
  can0  0CF00400   [8]  50 7D 84 FF FF 00 F6 7D
  can0  18F0090B   [8]  FF FE 3E 71 7D 42 7D FF
  can0  10FF0021   [8]  82 00 00 00 FF 3F 4D C8
  can0  0CF00400   [8]  50 7D 84 FF FF 00 F6 7D
  can0  18FEF117   [8]  FF FF FF FF FF FF FF F0
  can0  18FEF121   [8]  F7 FF FF 0F FF FF FF FF
  can0  18FEF131   [8]  CF FF FF F7 00 FF FF 0F
  can0  18F0090B   [8]  FF FE 3E 72 7D 42 7D FF
  can0  0CF00400   [8]  50 7D 84 FF FF 00 F6 7D
  can0  18FEDF00   [8]  85 FF FF FF FF FF FF FF
  can0  1892FE00   [8]  FF FF FF FF FF FF FF FF
  can0  18F0000F   [8]  DF 7D 7D FF 0F FF FF 28
  can0  18F00100   [8]  FF FF FF FF 00 FF FF FF
  can0  14F00121   [8]  FF FF FF FF FF FF FF FF
  can0  18FEE000   [8]  00 00 00 00 00 00 00 00
  can0  18FEF100   [8]  FF FF FE FC FF FF 00 FF
  can0  18FEF200   [8]  FF FF 00 00 00 00 FF FF
  can0  18FEEF00   [8]  FF FF FF FF FF FF FF FE
  can0  1CDE0317   [8]  F0 FF FF FF FF FF FF FF
  can0  18FD0900   [8]  00 00 00 00 00 00 00 00
  can0  18FDE000   [8]  FF FF FF FF FF FF FF FF
  can0  18FEC100   [8]  00 00 00 00 00 00 00 00
  can0  18FEE400   [8]  FF 7F FF FF FF FF FF FF
  can0  18FEF500   [8]  FF FF FF 1A 25 FF FF FF
  can0  18FEF700   [8]  FF FF FF FF F7 00 FF FF
  can0  18FF7400   [8]  00 00 FF FF FF FF FF FF
  can0  18F0090B   [8]  FF FE 3E 71 7D 42 7D FF
  can0  0CF00400   [8]  50 7D 84 FF FF 00 F6 7D
  can0  0C0A0021   [8]  FC FF FF FF FF FF FF FF
  can0  18F0090B   [8]  FF FE 3E 71 7D 42 7D FF
  can0  0CF00400   [8]  50 7D 84 FF FF 00 F6 7D
  can0  14F0010B   [8]  0F 00 FF FF FF 1C FF FF
  can0  14FDC40B   [8]  FF 08 5F FF FF FF FF FF
  can0  14FE4F0B   [8]  FF FF FF FF FF FF FF FF
  can0  14FEF031   [8]  FF FF FF FF FF FF CC FF
  can0  14FF07E6   [8]  FF FF FF FF FF FF FF FF
  can0  18F0090B   [8]  FF FE 3E 71 7D 42 7D FF
  can0  0CF00300   [8]  DD 00 FF FF FF FC FF FF
  can0  0CF00400   [8]  50 7D 84 FF FF 00 F6 7D
  can0  18F0090B   [8]  FF FE 3E 71 7D 42 7D FF
  can0  10FF0021   [8]  82 00 00 00 FF 3F 4D C8
  can0  0CF00400   [8]  50 7D 84 FF FF 00 F6 7D
  can0  18F00131   [8]  FF FF CF FF FF FF FF FF
  can0  18F0090B   [8]  FF FE 3E 71 7D 42 7D FF
  can0  0CF00400   [8]  50 7D 84 FF FF 00 F6 7D
  can0  18FEDF00   [8]  85 FF FF FF FF FF FF FF
  can0  18F0090B   [8]  FF FE 3E 71 7D 42 7D FF
  can0  0CF00400   [8]  50 7D 84 FF FF 00 F6 7D
  can0  18F0090B   [8]  FF FE 3E 71 7D 57 7D FF
  can0  0CF00400   [8]  50 7D 84 FF FF 00 F6 7D
  can0  18FEBF0B   [8]  FF FE FE FE FE FE FF FF
  can0  18F0090B   [8]  FF FE 3E 71 7D 57 7D FF
  can0  0CF00300   [8]  DD 00 FF FF FF FC FF FF
  can0  0CF00400   [8]  50 7D 84 FF FF 00 F6 7D
  can0  18F0090B   [8]  FF FE 3E 71 7D 57 7D FF
  can0  10FF0021   [8]  82 00 00 00 FF 3F 4D C8
  can0  0CF00400   [8]  50 7D 84 FF FF 00 F6 7D
  can0  18FEF117   [8]  FF FF FF FF FF FF FF F0
  can0  18FF0421   [8]  FF FF FF FF FF FB 7F D4
  can0  18FEF121   [8]  F7 FF FF 0F FF FF FF FF
  can0  18FEF131   [8]  CF FF FF F7 00 FF FF 0F
  can0  18F0090B   [8]  FF FE 3E 71 7D 57 7D FF
  can0  0CF00400   [8]  50 7D 84 FF FF 00 F6 7D
  can0  18FEDF00   [8]  85 FF FF FF FF FF FF FF
  can0  1892FE00   [8]  FF FF FF FF FF FF FF FF
  can0  18F0000F   [8]  DF 7D 7D FF 0F FF FF 28
  can0  18F00100   [8]  FF FF FF FF 00 FF FF FF
  can0  14F00121   [8]  FF FF FF FF FF FF FF FF
  can0  18FEE000   [8]  00 00 00 00 00 00 00 00
  can0  10FECA25   [8]  00 FF C8 FF FF 28 FF FF
  can0  18FEF100   [8]  FF FF FE FC FF FF 00 FF
  can0  18FEF200   [8]  FF FF 00 00 00 00 FF FF
  can0  18F0090B   [8]  FF FE 3E 71 7D 57 7D FF
  can0  0CF00400   [8]  50 7D 84 FF FF 00 F6 7D
  can0  0C0A0021   [8]  FC FF FF FF FF FF FF FF
  can0  18F0090B   [8]  FF FE 3E 71 7D 57 7D FF
  can0  0CF00400   [8]  50 7D 84 FF FF 00 F6 7D
  can0  14F0010B   [8]  0F 00 FF FF FF 1C FF FF
  can0  14FDC40B   [8]  FF 08 5F FF FF FF FF FF
  can0  14FE4F0B   [8]  FF FF FF FF FF FF FF FF
  can0  14FEF031   [8]  FF FF FF FF FF FF CC FF
  can0  14FF07E6   [8]  FF FF FF FF FF FF FF FF
  can0  18F0090B   [8]  FF FE 3E 71 7D 57 7D FF
  can0  0CF00300   [8]  DD 00 FF FF FF FC FF FF
  can0  0CF00400   [8]  50 7D 84 FF FF 00 F6 7D
  can0  14FF08E6   [8]  FF FF FF FF FF FF FF FF
  can0  18E00017   [8]  FF FF FF FF FF F0 FF FF
  can0  18E00019   [8]  00 FF FF FC FF FF FF FF
  can0  18E00031   [8]  FF FF FF FF FF FC FF FF
  can0  18E0FF21   [8]  FF FF FF 3F FF FF FF FF
  can0  18F0090B   [8]  FF FE 3E 71 7D 57 7D FF
  can0  10FF0021   [8]  82 00 00 00 FF 3F 4D C8
  can0  0CF00400   [8]  50 7D 84 FF FF 00 F6 7D
  can0  18F00131   [8]  FF FF CF FF FF FF FF FF
  can0  18FECA0B   [8]  C1 FF 17 03 05 7E FF FF
  can0  18F0090B   [8]  FF FE 3E 71 7D 57 7D FF
  can0  0CF00400   [8]  50 7D 84 FF FF 00 F6 7D
  can0  18FEDF00   [8]  85 FF FF FF FF FF FF FF
  can0  18FECA13   [8]  00 FF 00 00 00 7F FF FF
  can0  18FECA17   [8]  00 FF 54 00 05 4F FF FF
  can0  18FECA19   [8]  00 FF 00 00 00 7F FF FF
  can0  18FECA21   [8]  00 FF 00 00 00 7F FF FF
  can0  18FECA2A   [8]  00 FF 00 00 00 7F FF FF
  can0  18F0090B   [8]  FF FE 3E 71 7D 57 7D FF
  can0  0CF00400   [8]  50 7D 84 FF FF 00 F6 7D
  can0  18FECA3A   [8]  00 FF 00 00 00 7F FF FF
  can0  18FECA45   [8]  00 FF 00 00 00 7F FF FF
  can0  18FECA4A   [8]  00 FF 00 00 00 7F FF FF
  can0  18FECA7F   [8]  00 FF 00 00 00 7F FF FF
  can0  18FECA85   [8]  00 FF 00 00 00 7F FF FF
  can0  18F0090B   [8]  FF FE 3E 71 7D 57 7D FF
  can0  0CF00400   [8]  50 7D 84 FF FF 00 F6 7D
  can0  18FECAE8   [8]  00 FF 00 00 00 7F FF FF
  can0  18FEBF0B   [8]  FF FE FE FE FE FE FF FF
  can0  18FECAEC   [8]  00 FF 00 00 00 00 FF FF
  can0  18FECAED   [8]  00 FF 00 00 00 00 FF FF
  can0  18FEE419   [8]  FF FF FC FF FF FF FF FF
  can0  18F0090B   [8]  FF FE 3E 71 7D 57 7D FF
  can0  0CF00300   [8]  DD 00 FF FF FF FC FF FF
  can0  0CF00400   [8]  50 7D 84 FF FF 00 F6 7D
  can0  18F0090B   [8]  FF FE 3E 71 7D 57 7D FF
  can0  10FF0021   [8]  82 00 00 00 FF 3F 4D C8
  can0  0CF00400   [8]  50 7D 84 FF FF 00 F6 7D
  can0  18FEF117   [8]  FF FF FF FF FF FF FF F0
  can0  18FE700B   [8]  FF FF FF FF FF FF FF FF
  can0  18FEF121   [8]  F7 FF FF 0F FF FF FF FF
  can0  18FEF131   [8]  CF FF FF F7 00 FF FF 0F
  can0  18FF0025   [8]  F0 FF 64 0A 00 00 00 00
  can0  18F0090B   [8]  FF FE 3E 71 7D 57 7D FF
  can0  0CF00400   [8]  50 7D 84 FF FF 00 F6 7D
  can0  1CECFF00   [8]  20 16 00 04 FF CA FE 00
  can0  18FEDF00   [8]  85 FF FF FF FF FF FF FF
  can0  1892FE00   [8]  FF FF FF FF FF FF FF FF
  can0  18F0000F   [8]  DF 7D 7D FF 0F FF FF 28
  can0  14F00121   [8]  FF FF FF FF FF FF FF FF
  can0  18F00100   [8]  FF FF FF FF 00 FF FF FF
  can0  18FEE000   [8]  00 00 00 00 00 00 00 00
  can0  18FEF100   [8]  FF FF FE FC FF FF 00 FF
  can0  1CFEC347   [8]  FF FF FF FF FF FF FF FF
  can0  18FEF200   [8]  FF FF 00 00 00 00 FF FF
  can0  18F0090B   [8]  FF FE 3E 71 7D 57 7D FF
  can0  0CF00400   [8]  50 7D 84 FF FF 00 F6 7D
  can0  0C0A0021   [8]  FC FF FF FF FF FF FF FF
  can0  18F0090B   [8]  FF FE 3E 71 7D 57 7D FF
  can0  0CF00400   [8]  50 7D 84 FF FF 00 F6 7D
  can0  14F0010B   [8]  0F 00 FF FF FF 1C FF FF
  can0  14FDC40B   [8]  FF 08 5F FF FF FF FF FF
  can0  14FE4F0B   [8]  FF FF FF FF FF FF FF FF
  can0  14FEF031   [8]  FF FF FF FF FF FF CC FF
  can0  14FF07E6   [8]  FF FF FF FF FF FF FF FF
  can0  18F0090B   [8]  FF FE 3E 71 7D 57 7D FF
  can0  0CF00300   [8]  DD 00 FF FF FF FC FF FF
  can0  0CF00400   [8]  50 7D 84 FF FF 00 F6 7D
  can0  18F0090B   [8]  FF FE 3E 71 7D 57 7D FF
  can0  10FF0021   [8]  82 00 00 00 FF 3F 4D C8
  can0  0CF00400   [8]  50 7D 84 FF FF 00 F6 7D
  can0  18F00131   [8]  FF FF CF FF FF FF FF FF
  can0  18F0090B   [8]  FF FE 3E 71 7D 57 7D FF
  can0  0CF00400   [8]  50 7D 84 FF FF 00 F6 7D
  can0  18FEDF00   [8]  85 FF FF FF FF FF FF FF
  can0  18F0090B   [8]  FF FE 3E 71 7D 57 7D FF
  can0  0CF00400   [8]  50 7D 84 FF FF 00 F6 7D
  can0  1CEBFF00   [8]  01 47 FF CB 05 02 36 CB
  can0  18F0090B   [8]  FF FE 3E 71 7D 57 7D FF
  can0  0CF00400   [8]  50 7D 84 FF FF 00 F6 7D
  can0  18FEBF0B   [8]  FF FE FE FE FE FE FF FF
  can0  18F0090B   [8]  FF FE 3E 71 7D 57 7D FF
  can0  0CF00300   [8]  DD 00 FF FF FF FC FF FF
  can0  0CF00400   [8]  50 7D 84 FF FF 00 F6 7D
  can0  18F0090B   [8]  FF FE 3E 71 7D 57 7D FF
  can0  10FF0021   [8]  82 00 00 00 FF 3F 4D C8
  can0  0CF00400   [8]  50 7D 84 FF FF 00 F6 7D
  can0  18FEF117   [8]  FF FF FF FF FF FF FF F0
  can0  18FEF121   [8]  F7 FF FF 0F FF FF FF FF
  can0  18FEF131   [8]  CF FF FF F7 00 FF FF 0F
  can0  18F0090B   [8]  FF FE 3E 71 7D 42 7D FF
  can0  0CF00400   [8]  50 7D 84 FF FF 00 F6 7D
  can0  18FEDF00   [8]  85 FF FF FF FF FF FF FF
  can0  1892FE00   [8]  FF FF FF FF FF FF FF FF
  can0  18F0000F   [8]  DF 7D 7D FF 0F FF FF 28
  can0  18F00100   [8]  FF FF FF FF 00 FF FF FF
  can0  14F00121   [8]  FF FF FF FF FF FF FF FF
  can0  18FEE000   [8]  00 00 00 00 00 00 00 00
  can0  18FEF100   [8]  FF FF FE FC FF FF 00 FF
  can0  18FEF200   [8]  FF FF 00 00 00 00 FF FF
  can0  18F0090B   [8]  FF FE 3E 71 7D 42 7D FF
  can0  0CF00400   [8]  50 7D 84 FF FF 00 F6 7D
  can0  0C0A0021   [8]  FC FF FF FF FF FF FF FF
  can0  18F0090B   [8]  FF FE 3E 71 7D 42 7D FF
  can0  0CF00400   [8]  50 7D 84 FF FF 00 F6 7D
  can0  1CEBFF00   [8]  02 05 0C 40 71 02 08 09
  can0  14F0010B   [8]  0F 00 FF FF FF 1C FF FF
  can0  14FDC40B   [8]  FF 08 5F FF FF FF FF FF
  can0  14FE4F0B   [8]  FF FF FF FF FF FF FF FF
  can0  14FEF031   [8]  FF FF FF FF FF FF CC FF
  can0  14FF07E6   [8]  FF FF FF FF FF FF FF FF
  can0  18F0090B   [8]  FF FE 3E 71 7D 42 7D FF
  can0  0CF00300   [8]  DD 00 FF FF FF FC FF FF
  can0  0CF00400   [8]  50 7D 84 FF FF 00 F6 7D
  can0  1CECFF0F   [8]  20 13 00 03 FF E1 FE 00
  can0  18FD0900   [8]  00 00 00 00 00 00 00 00
  can0  18FD7C00   [8]  FF FF C3 30 FC FF FF FF
  can0  18FCDC00   [8]  FF FF FF FF FF FF FF FF
  can0  18F0090B   [8]  FF FE 3E 71 7D 42 7D FF
  can0  10FF0021   [8]  82 00 00 00 FF 3F 4D C8
  can0  0CF00400   [8]  50 7D 84 FF FF 00 F6 7D
  can0  18F00131   [8]  FF FF CF FF FF FF FF FF
  can0  18F0090B   [8]  FF FE 3E 71 7D 42 7D FF
  can0  0CF00400   [8]  50 7D 84 FF FF 00 F6 7D
  can0  18FEDF00   [8]  85 FF FF FF FF FF FF FF
  can0  18F0090B   [8]  FF FE 3E 71 7D 42 7D FF
  can0  0CF00400   [8]  50 7D 84 FF FF 00 F6 7D
  can0  18F0090B   [8]  FF FE 3E 71 7D 42 7D FF
  can0  0CF00400   [8]  50 7D 84 FF FF 00 F6 7D
  can0  18FEBF0B   [8]  FF FE FE FE FE FE FF FF
  can0  18F0090B   [8]  FF FE 3E 71 7D 42 7D FF
  can0  0CF00300   [8]  DD 00 FF FF FF FC FF FF
  can0  0CF00400   [8]  50 7D 84 FF FF 00 F6 7D
  can0  1CEBFF00   [8]  03 1E F0 EC 05 6F 00 04
  can0  18F0090B   [8]  FF FE 3E 71 7D 42 7D FF
  can0  10FF0021   [8]  82 00 00 00 FF 3F 4D C8
  can0  0CF00400   [8]  50 7D 84 FF FF 00 F6 7D
  can0  18FEF117   [8]  FF FF FF FF FF FF FF F0
  can0  18FEF121   [8]  F7 FF FF 0F FF FF FF FF
  can0  18FEF131   [8]  CF FF FF F7 00 FF FF 0F
  can0  18F0090B   [8]  FF FE 3E 71 7D 42 7D FF
  can0  0CF00400   [8]  50 7D 84 FF FF 00 F6 7D
  can0  1CEBFF0F   [8]  01 FF FF FF FF FF FF FF
  can0  18FEDF00   [8]  85 FF FF FF FF FF FF FF
  can0  1892FE00   [8]  FF FF FF FF FF FF FF FF
  can0  18F0000F   [8]  DF 7D 7D FF 0F FF FF 28
  can0  14F00121   [8]  FF FF FF FF FF FF FF FF
  can0  18F00100   [8]  FF FF FF FF 00 FF FF FF
  can0  18FEE000   [8]  00 00 00 00 00 00 00 00
  can0  18FEF100   [8]  FF FF FE FC FF FF 00 FF
  can0  18FEF200   [8]  FF FF 00 00 00 00 FF FF
  can0  18F0090B   [8]  FF FE 3E 71 7D 42 7D FF
  can0  0CF00400   [8]  50 7D 84 FF FF 00 F6 7D
  can0  0C0A0021   [8]  FC FF FF FF FF FF FF FF
  can0  18F0090B   [8]  FF FE 3E 71 7D 42 7D FF
  can0  0CF00400   [8]  50 7D 84 FF FF 00 F6 7D
  can0  14F0010B   [8]  0F 00 FF FF FF 1C FF FF
  can0  14FDC40B   [8]  FF 08 5F FF FF FF FF FF
  can0  14FE4F0B   [8]  FF FF FF FF FF FF FF FF
  can0  14FEF031   [8]  FF FF FF FF FF FF CC FF
  can0  14FF07E6   [8]  FF FF FF FF FF FF FF FF
  can0  18F0090B   [8]  FF FE 3E 71 7D 42 7D FF
  can0  0CF00300   [8]  DD 00 FF FF FF FC FF FF
  can0  0CF00400   [8]  50 7D 84 FF FF 00 F6 7D
  can0  18F0090B   [8]  FF FE 3E 71 7D 42 7D FF
  can0  10FF0021   [8]  82 00 00 00 FF 3F 4D C8
  can0  0CF00400   [8]  50 7D 84 FF FF 00 F6 7D
  can0  1CEBFF00   [8]  04 03 FF FF FF FF FF FF
  can0  1CECFF00   [8]  20 27 00 06 FF E3 FE 00
  can0  18F00131   [8]  FF FF CF FF FF FF FF FF
  can0  18F0090B   [8]  FF FE 3E 71 7D 42 7D FF
  can0  0CF00400   [8]  50 7D 84 FF FF 00 F6 7D
  can0  18FEDF00   [8]  85 FF FF FF FF FF FF FF
  can0  18F0090B   [8]  FF FE 3E 71 7D 42 7D FF
  can0  0CF00400   [8]  50 7D 84 FF FF 00 F6 7D
  can0  1CEBFF0F   [8]  02 FF FF FF FF FF FF FF
  can0  18F0090B   [8]  FF FE 3E 71 7D 42 7D FF
  can0  0CF00400   [8]  50 7D 84 FF FF 00 F6 7D
  can0  18FEBF0B   [8]  FF FE FE FE FE FE FF FF
  can0  18F0090B   [8]  FF FE 3E 71 7D 42 7D FF
  can0  0CF00300   [8]  DD 00 FF FF FF FC FF FF
  can0  0CF00400   [8]  50 7D 84 FF FF 00 F6 7D
  can0  18F0090B   [8]  FF FE 3E 71 7D 42 7D FF
  can0  10FF0021   [8]  82 00 00 00 FF 3F 4D C8
  can0  0CF00400   [8]  50 7D 84 FF FF 00 F6 7D
  can0  18FEF117   [8]  FF FF FF FF FF FF FF F0
  can0  18FEF121   [8]  F7 FF FF 0F FF FF FF FF
  can0  18FEF131   [8]  CF FF FF F7 00 FF FF 0F
  can0  18F0090B   [8]  FF FE 3E 71 7D 42 7D FF
  can0  0CF00400   [8]  50 7D 84 FF FF 00 F6 7D
  can0  18FEDF00   [8]  85 FF FF FF FF FF FF FF
  can0  1892FE00   [8]  FF FF FF FF FF FF FF FF
  can0  18F0000F   [8]  DF 7D 7D FF 0F FF FF 28
  can0  18F00100   [8]  FF FF FF FF 00 FF FF FF
  can0  14F00121   [8]  FF FF FF FF FF FF FF FF
  can0  18FEE000   [8]  00 00 00 00 00 00 00 00
  can0  18FEF100   [8]  FF FF FE FC FF FF 00 FF
  can0  18FEF200   [8]  FF FF 00 00 00 00 FF FF
  can0  18FEEF00   [8]  FF FF FF FF FF FF FF FE
  can0  18F0090B   [8]  FF FE 3E 71 7D 42 7D FF
  can0  0CF00400   [8]  50 7D 84 FF FF 00 F6 7D
  can0  1CEBFF00   [8]  01 C0 12 B4 FF FF FF C0
  can0  0C0A0021   [8]  FC FF FF FF FF FF FF FF
  can0  18F0090B   [8]  FF FE 3E 71 7D 42 7D FF
  can0  0CF00400   [8]  50 7D 84 FF FF 00 F6 7D
  can0  14F0010B   [8]  0F 00 FF FF FF 1C FF FF
  can0  14FDC40B   [8]  FF 08 5F FF FF FF FF FF
  can0  14FE4F0B   [8]  FF FF FF FF FF FF FF FF
  can0  14FEF031   [8]  FF FF FF FF FF FF CC FF
  can0  14FF07E6   [8]  FF FF FF FF FF FF FF FF
  can0  18F0090B   [8]  FF FE 3E 71 7D 42 7D FF
  can0  0CF00300   [8]  DD 00 FF FF FF FC FF FF
  can0  0CF00400   [8]  50 7D 84 FF FF 00 F6 7D
  can0  1CEBFF0F   [8]  03 FF FF DB 05 FF FF FF
  can0  18F0090B   [8]  FF FE 3E 71 7D 42 7D FF
  can0  10FF0021   [8]  82 00 00 00 FF 3F 4D C8
  can0  0CF00400   [8]  50 7D 84 FF FF 00 F6 7D
  can0  18F00131   [8]  FF FF CF FF FF FF FF FF
  can0  18F0090B   [8]  FF FE 3E 71 7D 42 7D FF
  can0  0CF00400   [8]  50 7D 84 FF FF 00 F6 7D
  can0  18FEDF00   [8]  85 FF FF FF FF FF FF FF
  can0  18F0090B   [8]  FF FE 3E 71 7D 42 7D FF
  can0  0CF00400   [8]  50 7D 84 FF FF 00 F6 7D
  can0  18F0090B   [8]  FF FE 3E 71 7D 42 7D FF
  can0  0CF00400   [8]  50 7D 84 FF FF 00 F6 7D
  can0  1CEBFF00   [8]  02 12 B4 C0 12 B4 C0 12
  can0  18FEBF0B   [8]  FF FE FE FE FE FE FF FF
  can0  18F0090B   [8]  FF FE 3E 71 7D 42 7D FF
  can0  0CF00300   [8]  DD 00 FF FF FF FC FF FF
  can0  0CF00400   [8]  50 7D 84 FF FF 00 F6 7D
  can0  18F0090B   [8]  FF FE 3E 71 7D 42 7D FF
  can0  10FF0021   [8]  82 00 00 00 FF 3F 4D C8
  can0  0CF00400   [8]  50 7D 84 FF FF 00 F6 7D
  can0  18FEF117   [8]  FF FF FF FF FF FF FF F0
  can0  18FEF121   [8]  F7 FF FF 0F FF FF FF FF
  can0  18FEF131   [8]  CF FF FF F7 00 FF FF 0F
  can0  18F0090B   [8]  FF FE 3E 71 7D 42 7D FF
  can0  0CF00400   [8]  50 7D 84 FF FF 00 F6 7D
  can0  18FEDF00   [8]  85 FF FF FF FF FF FF FF
  can0  1892FE00   [8]  FF FF FF FF FF FF FF FF
  can0  18F0000F   [8]  DF 7D 7D FF 0F FF FF 28
  can0  18F00100   [8]  FF FF FF FF 00 FF FF FF
  can0  14F00121   [8]  FF FF FF FF FF FF FF FF
  can0  18FEE000   [8]  00 00 00 00 00 00 00 00
  can0  18FEF100   [8]  FF FF FE FC FF FF 00 FF
  can0  18FEF200   [8]  FF FF 00 00 00 00 FF FF
  can0  18F0090B   [8]  FF FE 3E 71 7D 42 7D FF
  can0  0CF00400   [8]  50 7D 84 FF FF 00 F6 7D
