Script started on 2025-04-04 17:04:24-04:00 [COMMAND="bash -c './core-testing && pytest ./core/'" TERM="xterm-256color" TTY="/dev/pts/1" COLUMNS="161" LINES="22"]
Please ensure you are running this script on the post-production UTHP hardware (eMMC).
Also ensure the J1939 and J1708 buses are powered.
Are you connected to the Cascadia CAN bus and the Brake Board? (y/n) y
Setting up the environment for testing the core uthp tests...
=====================================================
Unique identifiers for UTHP-R1-0016:
mmcblk1      
|-mmcblk1p1  3CD5-CBBB
`-mmcblk1p2  b0f058ad-511c-4c0a-80fa-2d9062724e52
mmcblk1boot0 
mmcblk1boot1 
Setting up the CAN interface...
Setting up the Brake Board...
Environment setup should be complete... waiting for user to confirm hardware is ready.
Press any key to continue...
Starting the core uthp tests...
[1m====================================================================== test session starts ======================================================================[0m
platform linux -- Python 3.12.9, pytest-8.0.2, pluggy-1.4.0
rootdir: /home/uthp/uthp-tests/core
configfile: pytest.ini
plugins: anyio-3.6.1
[1mcollecting ... [0m[1mcollecting 9 items                                                                                                                                              [0m[1mcollecting 25 items                                                                                                                                             [0m[1mcollecting 34 items                                                                                                                                             [0m[1mcollected 40 items                                                                                                                                              [0m

core/test_can-utils.py candump output:
   can0  0CFE6C17   [8]  FF FF FF FF 00 FE 00 FE
  can0  14FF0217   [8]  FF FF FF FF FF FF FF FF
  can0  14FF1017   [8]  FF FF 00 00 FF FD FF FF
  can0  08F01D13   [8]  90 7D 20 FF 10 8A F5 87
  can0  08F00200   [8]  FF FF FF FF FF FF FF FF
  can0  0CF00400   [8]  50 7D 84 FF FF 00 F6 7D
  can0  0CFF0300   [8]  7D FF FF FF FF FF FF FF
  can0  10FF0100   [8]  FF FF FF FF FF FF 06 FC
  can0  14F00000   [8]  FF 7D 7D FF FF FF FF 7D
  can0  08F0090B   [8]  90 7D 20 6F 7D 80 7D FF
  can0  08FE6E0B   [8]  FF FE FF FE FF FE FF FE
  can0  08FF000B   [8]  00 00 FF FA 0C FF DF 92
  can0  0CFF000B   [8]  FF FF FF FF 00 FF 60 28
  can0  1001000B   [8]  FF FF FF FF FF FF FF FF
  can0  10FF0117   [8]  F0 FA F0 FF FF FF FF FF
  can0  14FEF217   [8]  FF FF FF FF FF FF FF FF
  can0  08F01D13   [8]  90 7D 20 FF 10 8A F5 98
  can0  08F00200   [8]  FF FF FF FF FF FF FF FF
  can0  0CFF0200   [8]  00 01 FF FF FF 00 11 6A
  can0  0CFF0500   [8]  FF FF FF FF FF FF FF FF
  can0  14F00500   [8]  FF FF FF FF FF FF FF FF
  can0  14FF1100   [8]  3F F7 FF 00 7F 13 08 FD
  can0  18F00100   [8]  FF FF FF FF 00 FF FF FF
  can0  08F0090B   [8]  90 7D 20 6F 7D 80 7D FF
  can0  08FE6E0B   [8]  FF FE FF FE FF FE FF FE
  can0  08FF000B   [8]  00 00 FF FA 0C FF EF C4
  can0  14FE6F0B   [8]  FF FF FF FF FF FF FF FF
  can0  14FEF200   [8]  FF FF 00 00 00 00 FF FF
  can0  14FF010B   [8]  FF 00 3F FF F0 FF 7F FF
  can0  14FF020B   [8]  7D 7D 7D 7D 80 80 FF FF
  can0  0CFE6C17   [8]  FF FF FF FF 00 FE 00 FE
  can0  08F01D13   [8]  8F 7D 20 FF 10 8A F5 99
  can0  08F00200   [8]  FF FF FF FF FF FF FF FF
  can0  0CF00400   [8]  50 7D 84 FF FF 00 F6 7D
  can0  0CFF0300   [8]  7D FF FF FF FF FF FF FF
  can0  10F00300   [8]  DD 00 FF FF FF FC FF FF
  can0  14FEDF00   [8]  85 FF FF FF FF FF FF FF
  can0  14FF0E00   [8]  FF FF FF FF FF FF 00 FB
  can0  08F0090B   [8]  90 7D 20 6F 7D 80 7D FF
  can0  08FE6E0B   [8]  FF FE FF FE FF FE FF FE
  can0  08FF000B   [8]  00 00 FF FA 0C FF FF F6
  can0  0CFF000B   [8]  FF FF FF FF 00 FF 70 1A
  can0  14FE4F0B   [8]  FF FF FF FF FF FF FF FF
  can0  14FF000B   [8]  FC 5F C1 C1 C1 FF BF 1E
  can0  14D0FF17   [8]  FF FF FF FF FF FF FF FF
  can0  08F01D13   [8]  90 7D 20 FF 10 8A F5 BA
  can0  08F00200   [8]  FF FF FF FF FF FF FF FF
  can0  0CFF0200   [8]  00 01 FF FF FF 00 21 3C
  can0  0CFF0500   [8]  FF FF FF FF FF FF FF FF
  can0  10FF0000   [8]  FC A8 61 FC F3 28 F3 FC
  can0  14FF0D00   [8]  04 FF FB 07 00 3C 3F 3C
  can0  08F0090B   [8]  8F 7D 20 71 7D 80 7D FF
  can0  08FE6E0B   [8]  FF FE FF FE FF FE FF FE
  can0  08FF000B   [8]  00 00 FF FA 0C FF 0F 63
  can0  10FF010B   [8]  96 56 6F 7D 71 7D 32 6B
  can0  14FDC40B   [8]  FF 0B 5F FF FF FF FF FF
  can0  14FEBF0B   [8]  FF FE FE FE FE FE FF FF
  can0  14FE5A2F   [8]  FF FF FF FF FF FF FF FF
  can0  0CFE6C17   [8]  FF FF FF FF 00 FE 00 FE
  can0  08F01D13   [8]  90 7D 20 FF 10 8A F5 CB
  can0  08F00200   [8]  FF FF FF FF FF FF FF FF
  can0  0CF00400   [8]  50 7D 84 FF FF 00 F6 7D
  can0  0CFF0300   [8]  7D FF FF FF FF FF FF FF
  can0  14FF0A00   [8]  FF FF FF 00 00 FF FF BF
  can0  08F0090B   [8]  90 7D 20 71 7D 80 7D FF
  can0  08FE6E0B   [8]  FF FE FF FE FF FE FF FE
  can0  08FF000B   [8]  00 00 FF FA 0C FF 1F 51
  can0  0CFF000B   [8]  FF FF FF FF 00 FF 80 8F
  can0  14F0010B   [8]  0F 00 FF FF FF 1C FF FF
  can0  14FF0053   [8]  FF FF FF FF FF FF FF FF
  can0  14FEAE17   [8]  FF FF FF FF FF FF FF FF
  can0  08F01D13   [8]  8F 7D 20 FF 10 8A F5 CC
  can0  08F00200   [8]  FF FF FF FF FF FF FF FF
  can0  0CFF0200   [8]  00 01 FF FF FF 00 31 0E
  can0  0CFF0500   [8]  FF FF FF FF FF FF FF FF
  can0  10FF0100   [8]  FF FF FF FF FF FF 06 FC
  can0  14FF0900   [8]  FF FF FF FF FF FF FF FF
  can0  18FF8000   [8]  FD 0B 04 0F 04 21 00 03
  can0  08F0090B   [8]  90 7D 20 71 7D 6B 7D FF
  can0  08FE6E0B   [8]  FF FE FF FE FF FE FF FE
  can0  08FF000B   [8]  00 00 FF FA 0C FF 2F 07
  can0  1001000B   [8]  FF FF FF FF FF FF FF FF
  can0  0CFE6C17   [8]  FF FF FF FF 00 FE 00 FE
  can0  10FF0117   [8]  F0 FA F0 FF FF FF FF FF
  can0  08F01D13   [8]  90 7D 20 FF 10 8A F5 FD
  can0  08F00200   [8]  FF FF FF FF FF FF FF FF
  can0  0CF00400   [8]  50 7D 84 FF FF 00 F6 7D
  can0  0CFF0300   [8]  7D FF FF FF FF FF FF FF
  can0  14FF0700   [8]  FF FF FF FF FF FF FF FF
  can0  14FF1600   [8]  FF FF FF FF FF FF FF FF
  can0  08F0090B   [8]  8F 7D 20 71 7D 6B 7D FF
  can0  08FE6E0B   [8]  FF FE FF FE FF FE FF FE
  can0  08FF000B   [8]  00 00 FF FA 0C FF 3F 35
  can0  0CFF000B   [8]  FF FF FF FF 00 FF 90 BD
  can0  14FF0017   [8]  40 00 00 03 03 10 00 0C
  can0  08F01D13   [8]  90 7D 20 FF 10 8A F5 0E
  can0  08F00200   [8]  FF FF FF FF FF FF FF FF
  can0  0CFF0200   [8]  00 01 FF FF FF 00 41 90
  can0  0CFF0500   [8]  FF FF FF FF FF FF FF FF
  can0  10F00300   [8]  DD 00 FF FF FF FC FF FF
  can0  14FF0600   [8]  FF 80 7F F7 FF FF FF FF
  can0  08F0090B   [8]  90 7D 20 71 7D 6B 7D FF
  can0  08FE6E0B   [8]  FF FE FF FE FF FE FF FE
  can0  08FF000B   [8]  00 00 FF FA 0C FF 4F AB
  can0  0CFE6C17   [8]  FF FF FF FF 00 FE 00 FE
  can0  08F01D13   [8]  90 7D 20 FF 10 8A F5 1F
  can0  08F00200   [8]  FF FF FF FF FF FF FF FF
  can0  0CF00400   [8]  50 7D 84 FF FF 00 F6 7D
  can0  0CFF0300   [8]  7D FF FF FF FF FF FF FF
  can0  10FF0000   [8]  FC A8 61 FC F3 28 F3 FC
  can0  14FF0000   [8]  FF FF FF 00 30 FF FF FF
  can0  08F0090B   [8]  90 7D 20 71 7D 6B 7D FF
  can0  08FE6E0B   [8]  FF FE FF FE FF FE FF FE
  can0  08FF000B   [8]  00 00 FF FA 0C FF 5F 99
  can0  0CFF000B   [8]  FF FF FF FF 00 FF A0 EB
  can0  10FF010B   [8]  C2 57 71 7D 71 7D 32 6B
  can0  14FF0117   [8]  00 00 F0 FF FC FF 00 00
  can0  08F01D13   [8]  8F 7D 20 FF 10 8A F5 00
  can0  08F00200   [8]  FF FF FF FF FF FF FF FF
  can0  0CFF0200   [8]  00 01 FF FF FF 00 51 A2
  can0  18FF0400   [8]  03 C3 3F 03 CF 0D 7F 89
  can0  0CFF0500   [8]  FF FF FF FF FF FF FF FF
  can0  14FEF100   [8]  FF FF FE CC FF FF 1F FF
  can0  08F0090B   [8]  90 7D 20 71 7D 6B 7D FF
  can0  08FE6E0B   [8]  FF FE FF FE FF FE FF FE
  can0  08FF000B   [8]  00 00 FF FA 0C FF 6F CF
  can0  0CFE6C17   [8]  FF FF FF FF 00 FE 00 FE
  can0  14FF0217   [8]  FF FF FF FF FF FF FF FF
  can0  14FF1017   [8]  FF FF 00 00 FF FD FF FF
  can0  08F01D13   [8]  90 7D 20 FF 10 8A F5 21
  can0  08F00200   [8]  FF FF FF FF FF FF FF FF
  can0  0CF00400   [8]  50 7D 84 FF FF 00 F6 7D
  can0  0CFF0300   [8]  7D FF FF FF FF FF FF FF
  can0  10FF0100   [8]  FF FF FF FF FF FF 06 FC
  can0  14F00000   [8]  FF 7D 7D FF FF FF FF 7D
  can0  08F0090B   [8]  8F 7D 20 71 7D 6B 7D FF
  can0  08FE6E0B   [8]  FF FE FF FE FF FE FF FE
  can0  08FF000B   [8]  00 00 FF FA 0C FF 7F FD
  can0  0CFF000B   [8]  FF FF FF FF 00 FF B0 D9
  can0  1001000B   [8]  FF FF FF FF FF FF FF FF
  can0  10FF0117   [8]  F0 FA F0 FF FF FF FF FF
  can0  14FEF217   [8]  FF FF FF FF FF FF FF FF
  can0  08F01D13   [8]  90 7D 20 FF 10 8A F5 32
  can0  08F00200   [8]  FF FF FF FF FF FF FF FF
  can0  0CFF0200   [8]  00 01 FF FF FF 00 61 F4
  can0  0CFF0500   [8]  FF FF FF FF FF FF FF FF
  can0  14F00500   [8]  FF FF FF FF FF FF FF FF
  can0  14FF1100   [8]  3F F7 FF 00 7F 13 08 FD
  can0  18F00100   [8]  FF FF FF FF 00 FF FF FF
  can0  08F0090B   [8]  90 7D 20 71 7D 6B 7D FF
  can0  08FE6E0B   [8]  FF FE FF FE FF FE FF FE
  can0  08FF000B   [8]  00 00 FF FA 0C FF 8F 68
  can0  14FE6F0B   [8]  FF FF FF FF FF FF FF FF
  can0  14FEF200   [8]  FF FF 00 00 00 00 FF FF
  can0  14FF010B   [8]  FF 00 3F FF F0 FF 7F FF
  can0  14FF020B   [8]  7D 7D 7D 7D 80 80 FF FF
  can0  0CFE6C17   [8]  FF FF FF FF 00 FE 00 FE
  can0  08F01D13   [8]  8F 7D 20 FF 10 8A F5 33
  can0  08F00200   [8]  FF FF FF FF FF FF FF FF
  can0  0CF00400   [8]  50 7D 84 FF FF 00 F6 7D
  can0  0CFF0300   [8]  7D FF FF FF FF FF FF FF
  can0  10F00300   [8]  DD 00 FF FF FF FC FF FF
  can0  14FEDF00   [8]  85 FF FF FF FF FF FF FF
  can0  14FF0E00   [8]  FF FF FF FF FF FF 00 FB
  can0  08F0090B   [8]  90 7D 20 71 7D 6B 7D FF
  can0  08FE6E0B   [8]  FF FE FF FE FF FE FF FE
  can0  08FF000B   [8]  00 00 FF FA 0C FF 9F 5A
  can0  0CFF000B   [8]  FF FF FF FF 00 FF C0 47
  can0  14FE4F0B   [8]  FF FF FF FF FF FF FF FF
  can0  14FF000B   [8]  FC 5F C1 C1 C1 FF CF 80
  can0  14D0FF17   [8]  FF FF FF FF FF FF FF FF
  can0  08F01D13   [8]  90 7D 20 FF 10 8A F5 54
  can0  08F00200   [8]  FF FF FF FF FF FF FF FF
  can0  0CFF0200   [8]  00 01 FF FF FF 00 71 C6
  can0  0CFF0500   [8]  FF FF FF FF FF FF FF FF
  can0  10FF0000   [8]  FC A8 61 FC F3 28 F3 FC
  can0  14FF0D00   [8]  04 FF FB 07 00 3C 3F 3C
  can0  08F0090B   [8]  8F 7D 20 71 7D 80 7D FF
  can0  08FE6E0B   [8]  FF FE FF FE FF FE FF FE
  can0  08FF000B   [8]  00 00 FF FA 0C FF AF 0C
  can0  10FF010B   [8]  91 58 71 7D 71 7D 32 6B
  can0  14FDC40B   [8]  FF 0B 5F FF FF FF FF FF
  can0  14FEBF0B   [8]  FF FE FE FE FE FE FF FF
  can0  14FE5A2F   [8]  FF FF FF FF FF FF FF FF
  can0  0CFE6C17   [8]  FF FF FF FF 00 FE 00 FE
  can0  08F01D13   [8]  90 7D 20 FF 10 8A F5 65
  can0  08F00200   [8]  FF FF FF FF FF FF FF FF
  can0  0CF00400   [8]  50 7D 84 FF FF 00 F6 7D
  can0  0CFF0300   [8]  7D FF FF FF FF FF FF FF
  can0  14FF0A00   [8]  FF FF FF 00 00 FF FF BF
  can0  08F0090B   [8]  90 7D 20 71 7D 80 7D FF
  can0  08FE6E0B   [8]  FF FE FF FE FF FE FF FE
  can0  08FF000B   [8]  00 00 FF FA 0C FF BF 3E
  can0  0CFF000B   [8]  FF FF FF FF 00 FF D0 75
  can0  14F0010B   [8]  0F 00 FF FF FF 1C FF FF
  can0  14FF0053   [8]  FF FF FF FF FF FF FF FF
  can0  18FF800B   [8]  FD 13 84 0F E8 FF FF 03
  can0  14FEAE17   [8]  FF FF FF FF FF FF FF FF
  can0  08F01D13   [8]  90 7D 20 FF 10 8A F5 76
  can0  08F00200   [8]  FF FF FF FF FF FF FF FF
  can0  0CFF0200   [8]  00 01 FF FF FF 00 81 53
  can0  0CFF0500   [8]  FF FF FF FF FF FF FF FF
  can0  10FF0100   [8]  FF FF FF FF FF FF 06 FC
  can0  14FF0900   [8]  FF FF FF FF FF FF FF FF
  can0  08F0090B   [8]  90 7D 20 71 7D 80 7D FF
  can0  08FE6E0B   [8]  FF FE FF FE FF FE FF FE
  can0  08FF000B   [8]  00 00 FF FA 0C FF CF A0
  can0  1001000B   [8]  FF FF FF FF FF FF FF FF
  can0  0CFE6C17   [8]  FF FF FF FF 00 FE 00 FE
  can0  10FF0117   [8]  F0 FA F0 FF FF FF FF FF
  can0  08F01D13   [8]  90 7D 20 FF 10 8A F5 87
  can0  08F00200   [8]  FF FF FF FF FF FF FF FF
  can0  0CF00400   [8]  50 7D 84 FF FF 00 F6 7D
  can0  0CFF0300   [8]  7D FF FF FF FF FF FF FF
  can0  14FF0700   [8]  FF FF FF FF FF FF FF FF
  can0  14FF1600   [8]  FF FF FF FF FF FF FF FF
  can0  08F0090B   [8]  90 7D 20 71 7D 80 7D FF
  can0  08FE6E0B   [8]  FF FE FF FE FF FE FF FE
  can0  08FF000B   [8]  00 00 FF FA 0C FF DF 92
  can0  0CFF000B   [8]  FF FF FF FF 00 FF E0 23
  can0  14FF0017   [8]  40 00 00 03 03 10 00 0C
  can0  08F01D13   [8]  90 7D 20 FF 10 8A F5 98
  can0  08F00200   [8]  FF FF FF FF FF FF FF FF
  can0  0CFF0200   [8]  00 01 FF FF FF 00 91 61
  can0  0CFF0500   [8]  FF FF FF FF FF FF FF FF
  can0  10F00300   [8]  DD 00 FF FF FF FC FF FF
  can0  14FF0600   [8]  FF 80 7F F7 FF FF FF FF
  can0  08F0090B   [8]  90 7D 20 71 7D 80 7D FF
  can0  08FE6E0B   [8]  FF FE FF FE FF FE FF FE
  can0  08FF000B   [8]  00 00 FF FA 0C FF EF C4
  can0  0CFE6C17   [8]  FF FF FF FF 00 FE 00 FE
  can0  08F01D13   [8]  90 7D 20 FF 10 8A F5 A9
  can0  08F00200   [8]  FF FF FF FF FF FF FF FF
  can0  0CF00400   [8]  50 7D 84 FF FF 00 F6 7D
  can0  0CFF0300   [8]  7D FF FF FF FF FF FF FF
  can0  10FF0000   [8]  FC A8 61 FC F3 28 F3 FC
  can0  14FF0000   [8]  FF FF FF 00 30 FF FF FF
  can0  08F0090B   [8]  90 7D 20 71 7D 80 7D FF
  can0  08FE6E0B   [8]  FF FE FF FE FF FE FF FE
  can0  08FF000B   [8]  00 00 FF FA 0C FF FF F6
  can0  0CFF000B   [8]  FF FF FF FF 00 FF F0 11
  can0  10FF010B   [8]  47 59 71 7D 71 7D 32 6B
  can0  14FF0117   [8]  00 00 F0 FF FC FF 00 00
  can0  08F01D13   [8]  90 7D 20 FF 10 8A F5 BA
  can0  08F00200   [8]  FF FF FF FF FF FF FF FF
  can0  0CFF0200   [8]  00 01 FF FF FF 00 A1 37
  can0  18FF0400   [8]  03 C3 3F 03 CF 0D 8F 1C
  can0  0CFF0500   [8]  FF FF FF FF FF FF FF FF
  can0  14FEF100   [8]  FF FF FE CC FF FF 1F FF
  can0  08F0090B   [8]  90 7D 20 71 7D 80 7D FF
  can0  08FE6E0B   [8]  FF FE FF FE FF FE FF FE
  can0  08FF000B   [8]  00 00 FF FA 0C FF 0F 63
  can0  0CFE6C17   [8]  FF FF FF FF 00 FE 00 FE
  can0  14FF0217   [8]  FF FF FF FF FF FF FF FF
  can0  14FF1017   [8]  FF FF 00 00 FF FD FF FF
  can0  08F01D13   [8]  8F 7D 20 FF 10 8A F5 BB
  can0  08F00200   [8]  FF FF FF FF FF FF FF FF
  can0  0CF00400   [8]  50 7D 84 FF FF 00 F6 7D
  can0  0CFF0300   [8]  7D FF FF FF FF FF FF FF
  can0  10FF0100   [8]  FF FF FF FF FF FF 06 FC
  can0  14F00000   [8]  FF 7D 7D FF FF FF FF 7D
  can0  08F0090B   [8]  90 7D 20 71 7D 80 7D FF
  can0  08FE6E0B   [8]  FF FE FF FE FF FE FF FE
  can0  08FF000B   [8]  00 00 FF FA 0C FF 1F 51
  can0  0CFF000B   [8]  FF FF FF FF 00 FF 00 84
  can0  1001000B   [8]  FF FF FF FF FF FF FF FF
  can0  10FF0117   [8]  F0 FA F0 FF FF FF FF FF
  can0  14FEF217   [8]  FF FF FF FF FF FF FF FF
  can0  08F01D13   [8]  90 7D 20 FF 10 8A F5 DC
  can0  08F00200   [8]  FF FF FF FF FF FF FF FF
  can0  0CFF0200   [8]  00 01 FF FF FF 00 B1 05
  can0  1CECFF00   [8]  20 16 00 04 FF CA FE 00
  can0  0CFF0500   [8]  FF FF FF FF FF FF FF FF
  can0  14F00500   [8]  FF FF FF FF FF FF FF FF
  can0  14FF1100   [8]  3F F7 FF 00 7F 13 08 FD
  can0  18F00100   [8]  FF FF FF FF 00 FF FF FF
  can0  08F0090B   [8]  8F 7D 20 71 7D 80 7D FF
  can0  08FE6E0B   [8]  FF FE FF FE FF FE FF FE
  can0  08FF000B   [8]  00 00 FF FA 0C FF 2F 07
  can0  14FE6F0B   [8]  FF FF FF FF FF FF FF FF
  can0  14FEF200   [8]  FF FF 00 00 00 00 FF FF
  can0  14FF010B   [8]  FF 00 3F FF F0 FF 7F FF
  can0  18FEEF00   [8]  FF FF FF FF FF FF FF FE
  can0  14FF020B   [8]  7D 7D 7D 7D 80 80 FF FF
  can0  18FEC100   [8]  00 00 00 00 00 00 00 00
  can0  18FEF500   [8]  FF FF FF E0 24 FF FF FF
  can0  18FF7400   [8]  00 00 FF FF FF FF FF FF
  can0  0CFE6C17   [8]  FF FF FF FF 00 FE 00 FE
  can0  08F01D13   [8]  90 7D 20 FF 10 8A F5 FD
  can0  08F00200   [8]  FF FF FF FF FF FF FF FF
  can0  0CF00400   [8]  50 7D 84 FF FF 00 F6 7D
  can0  0CFF0300   [8]  7D FF FF FF FF FF FF FF
  can0  10F00300   [8]  DD 00 FF FF FF FC FF FF
  can0  14FEDF00   [8]  85 FF FF FF FF FF FF FF
  can0  14FF0E00   [8]  FF FF FF FF FF FF 00 FB
  can0  08F0090B   [8]  90 7D 20 71 7D 80 7D FF
  can0  08FE6E0B   [8]  FF FE FF FE FF FE FF FE
  can0  08FF000B   [8]  00 00 FF FA 0C FF 3F 35
  can0  0CFF000B   [8]  FF FF FF FF 00 FF 10 B6
  can0  14FE4F0B   [8]  FF FF FF FF FF FF FF FF
  can0  14FF000B   [8]  FC 5F C1 C1 C1 FF DF B2
  can0  14D0FF17   [8]  FF FF FF FF FF FF FF FF
  can0  08F01D13   [8]  90 7D 20 FF 10 8A F5 0E
  can0  08F00200   [8]  FF FF FF FF FF FF FF FF
  can0  0CFF0200   [8]  00 01 FF FF FF 00 C1 9B
  can0  0CFF0500   [8]  FF FF FF FF FF FF FF FF
  can0  10FF0000   [8]  FC A8 61 FC F3 28 F3 FC
  can0  14FF0D00   [8]  04 FF FB 07 00 3C 3F 3C
  can0  08F0090B   [8]  90 7D 20 71 7D 80 7D FF
  can0  08FE6E0B   [8]  FF FE FF FE FF FE FF FE
  can0  08FF000B   [8]  00 00 FF FA 0C FF 4F AB
  can0  10FF010B   [8]  A6 5A 71 7D 71 7D 32 6B
  can0  14FDC40B   [8]  FF 0B 5F FF FF FF FF FF
  can0  14FEBF0B   [8]  FF FE FE FE FE FE FF FF
  can0  14FE5A2F   [8]  FF FF FF FF FF FF FF FF
  can0  18FF8013   [8]  FD 17 04 0F 04 00 00 03
  can0  0CFE6C17   [8]  FF FF FF FF 00 FE 00 FE
  can0  08F01D13   [8]  8F 7D 20 FF 10 8A F5 0F
  can0  08F00200   [8]  FF FF FF FF FF FF FF FF
  can0  0CF00400   [8]  50 7D 84 FF FF 00 F6 7D
  can0  0CFF0300   [8]  7D FF FF FF FF FF FF FF
  can0  14FF0A00   [8]  FF FF FF 00 00 FF FF BF
  can0  08F0090B   [8]  90 7D 20 71 7D 80 7D FF
  can0  08FE6E0B   [8]  FF FE FF FE FF FE FF FE
  can0  08FF000B   [8]  00 00 FF FA 0C FF 5F 99
  can0  0CFF000B   [8]  FF FF FF FF 00 FF 20 E0
  can0  14F0010B   [8]  0F 00 FF FF FF 1C FF FF
  can0  14FF0053   [8]  FF FF FF FF FF FF FF FF
  can0  14FEAE17   [8]  FF FF FF FF FF FF FF FF
  can0  08F01D13   [8]  90 7D 20 FF 10 8A F5 10
  can0  08F00200   [8]  FF FF FF FF FF FF FF FF
  can0  0CFF0200   [8]  00 01 FF FF FF 00 D1 A9
  can0  0CFF0500   [8]  FF FF FF FF FF FF FF FF
  can0  10FF0100   [8]  FF FF FF FF FF FF 06 FC
  can0  14FF0900   [8]  FF FF FF FF FF FF FF FF
  can0  08F0090B   [8]  8F 7D 20 71 7D 80 7D FF
  can0  08FE6E0B   [8]  FF FE FF FE FF FE FF FE
  can0  08FF000B   [8]  00 00 FF FA 0C FF 6F CF
  can0  1001000B   [8]  FF FF FF FF FF FF FF FF
  can0  0CFE6C17   [8]  FF FF FF FF 00 FE 00 FE
  can0  10FF0117   [8]  F0 FA F0 FF FF FF FF FF
  can0  08F01D13   [8]  8F 7D 20 FF 10 8A F5 11
  can0  08F00200   [8]  FF FF FF FF FF FF FF FF
  can0  0CF00400   [8]  50 7D 84 FF FF 00 F6 7D
  can0  0CFF0300   [8]  7D FF FF FF FF FF FF FF
  can0  14FF0700   [8]  FF FF FF FF FF FF FF FF
  can0  14FF1600   [8]  FF FF FF FF FF FF FF FF
  can0  08F0090B   [8]  90 7D 20 71 7D 80 7D FF
  can0  08FE6E0B   [8]  FF FE FF FE FF FE FF FE
  can0  08FF000B   [8]  00 00 FF FA 0C FF 7F FD
  can0  0CFF000B   [8]  FF FF FF FF 00 FF 30 D2
  can0  14FF0017   [8]  40 00 00 03 03 10 00 0C
  can0  08F01D13   [8]  90 7D 20 FF 10 8A F5 32
  can0  08F00200   [8]  FF FF FF FF FF FF FF FF
  can0  0CFF0200   [8]  00 01 FF FF FF 00 E1 FF
  can0  1CEBFF00   [8]  01 47 FF CB 05 02 2B 2E
  can0  0CFF0500   [8]  FF FF FF FF FF FF FF FF
  can0  10F00300   [8]  DD 00 FF FF FF FC FF FF
  can0  14FF0600   [8]  FF 80 7F F7 FF FF FF FF
  can0  08F0090B   [8]  8F 7D 20 71 7D 80 7D FF
  can0  08FE6E0B   [8]  FF FE FF FE FF FE FF FE
  can0  08FF000B   [8]  00 00 FF FA 0C FF 8F 68
  can0  0CFE6C17   [8]  FF FF FF FF 00 FE 00 FE
  can0  08F01D13   [8]  90 7D 20 FF 10 8A F5 43
  can0  08F00200   [8]  FF FF FF FF FF FF FF FF
  can0  0CF00400   [8]  50 7D 84 FF FF 00 F6 7D
  can0  0CFF0300   [8]  7D FF FF FF FF FF FF FF
  can0  10FF0000   [8]  FC A8 61 FC F3 28 F3 FC
  can0  14FF0000   [8]  FF FF FF 00 30 FF FF FF
  can0  08F0090B   [8]  90 7D 20 71 7D 80 7D FF
  can0  08FE6E0B   [8]  FF FE FF FE FF FE FF FE
  can0  08FF000B   [8]  00 00 FF FA 0C FF 9F 5A
  can0  0CFF000B   [8]  FF FF FF FF 00 FF 40 4C
  can0  10FF010B   [8]  70 5B 71 7D 71 7D 32 6B
  can0  14FF0117   [8]  00 00 F0 FF FC FF 00 00
  can0  08F01D13   [8]  90 7D 20 FF 10 8A F5 54
  can0  08F00200   [8]  FF FF FF FF FF FF FF FF
  can0  0CFF0200   [8]  00 01 FF FF FF 00 F1 CD
  can0  18FF0400   [8]  03 C3 3F 03 CF 0D 9F 2E
  can0  0CFF0500   [8]  FF FF FF FF FF FF FF FF
  can0  14FEF100   [8]  FF FF FE CC FF FF 1F FF
  can0  08F0090B   [8]  90 7D 20 71 7D 80 7D FF
  can0  08FE6E0B   [8]  FF FE FF FE FF FE FF FE
  can0  08FF000B   [8]  00 00 FF FA 0C FF AF 0C
  can0  0CFE6C17   [8]  FF FF FF FF 00 FE 00 FE
  can0  14FF0217   [8]  FF FF FF FF FF FF FF FF
  can0  14FF1017   [8]  FF FF 00 00 FF FD FF FF
  can0  08F01D13   [8]  8F 7D 20 FF 10 8A F5 55
  can0  08F00200   [8]  FF FF FF FF FF FF FF FF
  can0  0CF00400   [8]  50 7D 84 FF FF 00 F6 7D
  can0  0CFF0300   [8]  7D FF FF FF FF FF FF FF
  can0  10FF0100   [8]  FF FF FF FF FF FF 06 FC
  can0  14F00000   [8]  FF 7D 7D FF FF FF FF 7D
  can0  08F0090B   [8]  90 7D 20 71 7D 80 7D FF
  can0  08FE6E0B   [8]  FF FE FF FE FF FE FF FE
  can0  08FF000B   [8]  00 00 FF FA 0C FF BF 3E
  can0  0CFF000B   [8]  FF FF FF FF 00 FF 50 7E
  can0  1001000B   [8]  FF FF FF FF FF FF FF FF
  can0  10FF0117   [8]  F0 FA F0 FF FF FF FF FF
  can0  14FEF217   [8]  FF FF FF FF FF FF FF FF
  can0  08F01D13   [8]  90 7D 20 FF 10 8A F5 76
  can0  10ECFF25   [8]  20 0E 00 02 FF CA FE 00
  can0  10FECA98   [8]  00 FF FE 2B 9F 01 FF FF
  can0  08F00200   [8]  FF FF FF FF FF FF FF FF
  can0  0CFF0200   [8]  00 01 FF FF FF 00 01 58
  can0  0CFF0500   [8]  FF FF FF FF FF FF FF FF
  can0  14F00500   [8]  FF FF FF FF FF FF FF FF
  can0  14FF1100   [8]  3F F7 FF 00 7F 13 08 FD
  can0  18F00100   [8]  FF FF FF FF 00 FF FF FF
  can0  08F0090B   [8]  8F 7D 20 71 7D 80 7D FF
  can0  08FE6E0B   [8]  FF FE FF FE FF FE FF FE
  can0  08FF000B   [8]  00 00 FF FA 0C FF CF A0
  can0  14FE6F0B   [8]  FF FF FF FF FF FF FF FF
  can0  14FEF200   [8]  FF FF 00 00 00 00 FF FF
  can0  14FF010B   [8]  FF 00 3F FF F0 FF 7F FF
  can0  14FF020B   [8]  7D 7D 7D 7D 80 80 FF FF
  can0  0CFE6C17   [8]  FF FF FF FF 00 FE 00 FE
  can0  08F01D13   [8]  90 7D 20 FF 10 8A F5 87
  can0  08F00200   [8]  FF FF FF FF FF FF FF FF
  can0  0CF00400   [8]  50 7D 84 FF FF 00 F6 7D
  can0  0CFF0300   [8]  7D FF FF FF FF FF FF FF
  can0  10F00300   [8]  DD 00 FF FF FF FC FF FF
  can0  14FEDF00   [8]  85 FF FF FF FF FF FF FF
  can0  14FF0E00   [8]  FF FF FF FF FF FF 00 FB
  can0  08F0090B   [8]  90 7D 20 71 7D 80 7D FF
  can0  08FE6E0B   [8]  FF FE FF FE FF FE FF FE
  can0  08FF000B   [8]  00 00 FF FA 0C FF DF 92
  can0  0CFF000B   [8]  FF FF FF FF 00 FF 60 28
  can0  14FE4F0B   [8]  FF FF FF FF FF FF FF FF
  can0  14FF000B   [8]  FC 5F C1 C1 C1 FF EF E4
  can0  14D0FF17   [8]  FF FF FF FF FF FF FF FF
  can0  08F01D13   [8]  90 7D 20 FF 10 8A F5 98
  can0  08F00200   [8]  FF FF FF FF FF FF FF FF
  can0  0CFF0200   [8]  00 01 FF FF FF 00 11 6A
  can0  1CEBFF00   [8]  02 F3 EE 01 6F 00 04 01
  can0  0CFF0500   [8]  FF FF FF FF FF FF FF FF
  can0  10FF0000   [8]  FC A8 61 FC F3 28 F3 FC
  can0  14FF0D00   [8]  04 FF FB 07 00 3C 3F 3C
  can0  08F0090B   [8]  90 7D 20 71 7D 80 7D FF
  can0  08FE6E0B   [8]  FF FE FF FE FF FE FF FE
  can0  08FF000B   [8]  00 00 FF FA 0C FF EF C4
  can0  10FF010B   [8]  FF 5C 71 7D 71 7D 32 6B
  can0  14FDC40B   [8]  FF 0B 5F FF FF FF FF FF
  can0  14FEBF0B   [8]  FF FE FE FE FE FE FF FF
  can0  18FF8017   [8]  FD 25 04 0F 4C B8 09 03
  can0  14FE5A2F   [8]  FF FF FF FF FF FF FF FF
  can0  0CFE6C17   [8]  FF FF FF FF 00 FE 00 FE
  can0  08F01D13   [8]  90 7D 20 FF 10 8A F5 A9
  can0  08F00200   [8]  FF FF FF FF FF FF FF FF
  can0  0CF00400   [8]  50 7D 84 FF FF 00 F6 7D
  can0  0CFF0300   [8]  7D FF FF FF FF FF FF FF
  can0  14FF0A00   [8]  FF FF FF 00 00 FF FF BF
  can0  18FD7C00   [8]  FF FF D3 30 FC FF FF FF
  can0  08F0090B   [8]  90 7D 20 71 7D 80 7D FF
  can0  08FE6E0B   [8]  FF FE FF FE FF FE FF FE
  can0  08FF000B   [8]  00 00 FF FA 0C FF FF F6
  can0  0CFF000B   [8]  FF FF FF FF 00 FF 70 1A
  can0  14F0010B   [8]  0F 00 FF FF FF 1C FF FF
  can0  14FF0053   [8]  FF FF FF FF FF FF FF FF
  can0  14FEAE17   [8]  FF FF FF FF FF FF FF FF
  can0  08F01D13   [8]  90 7D 20 FF 10 8A F5 BA
  can0  08F00200   [8]  FF FF FF FF FF FF FF FF
  can0  0CFF0200   [8]  00 01 FF FF FF 00 21 3C
  can0  0CFF0500   [8]  FF FF FF FF FF FF FF FF
  can0  10FF0100   [8]  FF FF FF FF FF FF 06 FC
  can0  14FF0900   [8]  FF FF FF FF FF FF FF FF
  can0  08F0090B   [8]  90 7D 20 71 7D 80 7D FF
  can0  08FE6E0B   [8]  FF FE FF FE FF FE FF FE
  can0  08FF000B   [8]  00 00 FF FA 0C FF 0F 63
  can0  1001000B   [8]  FF FF FF FF FF FF FF FF
  can0  0CFE6C17   [8]  FF FF FF FF 00 FE 00 FE
  can0  10FF0117   [8]  F0 FA F0 FF FF FF FF FF
  can0  08F01D13   [8]  8F 7D 20 FF 10 8A F5 BB
  can0  10EBFF25   [8]  01 00 FF 01 FD EE 39 F7
  can0  08F00200   [8]  FF FF FF FF FF FF FF FF
  can0  0CF00400   [8]  50 7D 84 FF FF 00 F6 7D
  can0  0CFF0300   [8]  7D FF FF FF FF FF FF FF
  can0  14FF0700   [8]  FF FF FF FF FF FF FF FF
  can0  14FF1600   [8]  FF FF FF FF FF FF FF FF
  can0  08F0090B   [8]  90 7D 20 71 7D 80 7D FF
  can0  08FE6E0B   [8]  FF FE FF FE FF FE FF FE
  can0  08FF000B   [8]  00 00 FF FA 0C FF 1F 51
  can0  0CFF000B   [8]  FF FF FF FF 00 FF 80 8F
  can0  14FF0017   [8]  40 00 00 03 03 10 00 0C
  can0  08F01D13   [8]  90 7D 20 FF 10 8A F5 DC
  can0  08F00200   [8]  FF FF FF FF FF FF FF FF
  can0  0CFF0200   [8]  00 01 FF FF FF 00 31 0E
  can0  0CFF0500   [8]  FF FF FF FF FF FF FF FF
  can0  10F00300   [8]  DD 00 FF FF FF FC FF FF
  can0  14FF0600   [8]  FF 80 7F F7 FF FF FF FF
  can0  08F0090B   [8]  8F 7D 20 71 7D 80 7D FF
  can0  08FE6E0B   [8]  FF FE FF FE FF FE FF FE
  can0  08FF000B   [8]  00 00 FF FA 0C FF 2F 07
  can0  0CFE6C17   [8]  FF FF FF FF 00 FE 00 FE
  can0  08F01D13   [8]  90 7D 20 FF 10 8A F5 FD
  can0  08F00200   [8]  FF FF FF FF FF FF FF FF
  can0  0CF00400   [8]  50 7D 84 FF FF 00 F6 7D
  can0  0CFF0300   [8]  7D FF FF FF FF FF FF FF
  can0  10FF0000   [8]  FC A8 61 FC F3 28 F3 FC
  can0  14FF0000   [8]  FF FF FF 00 30 FF FF FF
  can0  08F0090B   [8]  90 7D 20 71 7D 80 7D FF
  can0  08FE6E0B   [8]  FF FE FF FE FF FE FF FE
  can0  08FF000B   [8]  00 00 FF FA 0C FF 3F 35
  can0  0CFF000B   [8]  FF FF FF FF 00 FF 90 BD
  can0  10FF010B   [8]  29 5D 71 7D 71 7D 32 6B
  can0  14FF0117   [8]  00 00 F0 FF FC FF 00 00
  can0  08F01D13   [8]  90 7D 20 FF 10 8A F5 0E
  can0  08F00200   [8]  FF FF FF FF FF FF FF FF
  can0  0CFF0200   [8]  00 01 FF FF FF 00 41 90
  can0  18FF0400   [8]  03 C3 3F 03 CF 0D AF 78
  can0  1CEBFF00   [8]  03 CB 05 0C 36 1E F0 EC
  can0  0CFF0500   [8]  FF FF FF FF FF FF FF FF
  can0  14FEF100   [8]  FF FF FE CC FF FF 1F FF
  can0  08F0090B   [8]  90 7D 20 71 7D 80 7D FF
  can0  08FE6E0B   [8]  FF FE FF FE FF FE FF FE
  can0  08FF000B   [8]  00 00 FF FA 0C FF 4F AB
  can0  0CFE6C17   [8]  FF FF FF FF 00 FE 00 FE
  can0  14FF0217   [8]  FF FF FF FF FF FF FF FF
  can0  14FF1017   [8]  FF FF 00 00 FF FD FF FF
  can0  08F01D13   [8]  90 7D 20 FF 10 8A F5 1F
  can0  08F00200   [8]  FF FF FF FF FF FF FF FF
  can0  0CF00400   [8]  50 7D 84 FF FF 00 F6 7D
  can0  0CFF0300   [8]  7D FF FF FF FF FF FF FF
  can0  10FF0100   [8]  FF FF FF FF FF FF 06 FC
  can0  14F00000   [8]  FF 7D 7D FF FF FF FF 7D
  can0  08F0090B   [8]  90 7D 20 71 7D 80 7D FF
  can0  08FE6E0B   [8]  FF FE FF FE FF FE FF FE
  can0  08FF000B   [8]  00 00 FF FA 0C FF 5F 99
  can0  0CFF000B   [8]  FF FF FF FF 00 FF A0 EB
  can0  1001000B   [8]  FF FF FF FF FF FF FF FF
  can0  10FF0117   [8]  F0 FA F0 FF FF FF FF FF
  can0  14FEF217   [8]  FF FF FF FF FF FF FF FF
  can0  08F01D13   [8]  90 7D 20 FF 10 8A F5 10
  can0  10EBFF25   [8]  02 FC FF 39 C8 FF FF 26
  can0  08F00200   [8]  FF FF FF FF FF FF FF FF
  can0  0CFF0200   [8]  00 01 FF FF FF 00 51 A2
  can0  0CFF0500   [8]  FF FF FF FF FF FF FF FF
  can0  14F00500   [8]  FF FF FF FF FF FF FF FF
  can0  14FF1100   [8]  3F F7 FF 00 7F 13 08 FD
  can0  18F00100   [8]  FF FF FF FF 00 FF FF FF
  can0  08F0090B   [8]  90 7D 20 71 7D 80 7D FF
  can0  08FE6E0B   [8]  FF FE FF FE FF FE FF FE
  can0  08FF000B   [8]  00 00 FF FA 0C FF 6F CF
  can0  14FE6F0B   [8]  FF FF FF FF FF FF FF FF
  can0  14FEF200   [8]  FF FF 00 00 00 00 FF FF
  can0  14FF010B   [8]  FF 00 3F FF F0 FF 7F FF
  can0  14FF020B   [8]  7D 7D 7D 7D 80 80 FF FF
  can0  0CFE6C17   [8]  FF FF FF FF 00 FE 00 FE
  can0  08F01D13   [8]  90 7D 20 FF 10 8A F5 21
  can0  08F00200   [8]  FF FF FF FF FF FF FF FF
  can0  0CF00400   [8]  50 7D 84 FF FF 00 F6 7D
  can0  0CFF0300   [8]  7D FF FF FF FF FF FF FF
  can0  10F00300   [8]  DD 00 FF FF FF FC FF FF
  can0  14FEDF00   [8]  85 FF FF FF FF FF FF FF
  can0  14FF0E00   [8]  FF FF FF FF FF FF 00 FB
  can0  08F0090B   [8]  90 7D 20 71 7D 80 7D FF
  can0  08FE6E0B   [8]  FF FE FF FE FF FE FF FE
  can0  08FF000B   [8]  00 00 FF FA 0C FF 7F FD
  can0  0CFF000B   [8]  FF FF FF FF 00 FF B0 D9
  can0  14FE4F0B   [8]  FF FF FF FF FF FF FF FF
  can0  14FF000B   [8]  FC 5F C1 C1 C1 FF FF D6
  can0  14D0FF17   [8]  FF FF FF FF FF FF FF FF
  can0  18FF8025   [8]  FD 00 84 0F 20 00 FF 03
  can0  08F01D13   [8]  90 7D 20 FF 10 8A F5 32
  can0  08F00200   [8]  FF FF FF FF FF FF FF FF
  can0  0CFF0200   [8]  00 01 FF FF FF 00 61 F4
  can0  0CFF0500   [8]  FF FF FF FF FF FF FF FF
  can0  10FF0000   [8]  FC A8 61 FC F3 28 F3 FC
  can0  14FF0D00   [8]  04 FF FB 07 00 3C 3F 3C
  can0  08F0090B   [8]  90 7D 20 71 7D 80 7D FF
  can0  08FE6E0B   [8]  FF FE FF FE FF FE FF FE
  can0  08FF000B   [8]  00 00 FF FA 0C FF 8F 68
  can0  10FF010B   [8]  C8 5E 71 7D 71 7D 32 6B
  can0  14FDC40B   [8]  FF 0B 5F FF FF FF FF FF
  can0  14FEBF0B   [8]  FF FE FE FE FE FE FF FF
  can0  14FE5A2F   [8]  FF FF FF FF FF FF FF FF
  can0  0CFE6C17   [8]  FF FF FF FF 00 FE 00 FE
  can0  08F01D13   [8]  90 7D 20 FF 10 8A F5 43
  can0  08F00200   [8]  FF FF FF FF FF FF FF FF
  can0  0CF00400   [8]  50 7D 84 FF FF 00 F6 7D
  can0  0CFF0300   [8]  7D FF FF FF FF FF FF FF
  can0  14FF0A00   [8]  FF FF FF 00 00 FF FF BF
  can0  08F0090B   [8]  90 7D 20 71 7D 80 7D FF
  can0  08FE6E0B   [8]  FF FE FF FE FF FE FF FE
  can0  08FF000B   [8]  00 00 FF FA 0C FF 9F 5A
  can0  0CFF000B   [8]  FF FF FF FF 00 FF C0 47
  can0  14F0010B   [8]  0F 00 FF FF FF 1C FF FF
  can0  14FF0053   [8]  FF FF FF FF FF FF FF FF
  can0  14FEAE17   [8]  FF FF FF FF FF FF FF FF
  can0  08F01D13   [8]  90 7D 20 FF 10 8A F5 54
  can0  08F00200   [8]  FF FF FF FF FF FF FF FF
  can0  0CFF0200   [8]  00 01 FF FF FF 00 71 C6
  can0  1CEBFF00   [8]  04 03 FF FF FF FF FF FF
  can0  0CFF0500   [8]  FF FF FF FF FF FF FF FF
  can0  10FF0100   [8]  FF FF FF FF FF FF 06 FC
  can0  14FF0900   [8]  FF FF FF FF FF FF FF FF
  can0  08F0090B   [8]  90 7D 20 71 7D 80 7D FF
  can0  08FE6E0B   [8]  FF FE FF FE FF FE FF FE
  can0  08FF000B   [8]  00 00 FF FA 0C FF AF 0C
  can0  1001000B   [8]  FF FF FF FF FF FF FF FF
  can0  0CFE6C17   [8]  FF FF FF FF 00 FE 00 FE
  can0  10FF0117   [8]  F0 FA F0 FF FF FF FF FF
  can0  08F01D13   [8]  90 7D 20 FF 10 8A F5 65
  can0  08F00200   [8]  FF FF FF FF FF FF FF FF
  can0  0CF00400   [8]  50 7D 84 FF FF 00 F6 7D
  can0  0CFF0300   [8]  7D FF FF FF FF FF FF FF
  can0  14FF0700   [8]  FF FF FF FF FF FF FF FF
  can0  14FF1600   [8]  FF FF FF FF FF FF FF FF
  can0  08F0090B   [8]  90 7D 20 71 7D 80 7D FF
  can0  08FE6E0B   [8]  FF FE FF FE FF FE FF FE
  can0  08FF000B   [8]  00 00 FF FA 0C FF BF 3E
  can0  0CFF000B   [8]  FF FF FF FF 00 FF D0 75
  can0  14FF0017   [8]  40 00 00 03 03 10 00 0C
  can0  08F01D13   [8]  8F 7D 20 FF 10 8A F5 66
  can0  08F00200   [8]  FF FF FF FF FF FF FF FF
  can0  0CFF0200   [8]  00 01 FF FF FF 00 81 53
  can0  0CFF0500   [8]  FF FF FF FF FF FF FF FF
  can0  10F00300   [8]  DD 00 FF FF FF FC FF FF
  can0  14FF0600   [8]  FF 80 7F F7 FF FF FF FF
  can0  08F0090B   [8]  90 7D 20 71 7D 80 7D FF
  can0  08FE6E0B   [8]  FF FE FF FE FF FE FF FE
  can0  08FF000B   [8]  00 00 FF FA 0C FF CF A0
  can0  0CFE6C17   [8]  FF FF FF FF 00 FE 00 FE
  can0  08F01D13   [8]  90 7D 20 FF 10 8A F5 87
  can0  08F00200   [8]  FF FF FF FF FF FF FF FF
  can0  0CF00400   [8]  50 7D 84 FF FF 00 F6 7D
  can0  0CFF0300   [8]  7D FF FF FF FF FF FF FF
  can0  10FF0000   [8]  FC A8 61 FC F3 28 F3 FC
  can0  14FF0000   [8]  FF FF FF 00 30 FF FF FF
  can0  08F0090B   [8]  8F 7D 20 71 7D 80 7D FF
  can0  08FE6E0B   [8]  FF FE FF FE FF FE FF FE
  can0  08FF000B   [8]  00 00 FF FA 0C FF DF 92
  can0  0CFF000B   [8]  FF FF FF FF 00 FF E0 23
  can0  10FF010B   [8]  1E 5F 71 7D 71 7D 32 6B
  can0  14FF0117   [8]  00 00 F0 FF FC FF 00 00
  can0  08F01D13   [8]  90 7D 20 FF 10 8A F5 98
  can0  08F00200   [8]  FF FF FF FF FF FF FF FF
  can0  0CFF0200   [8]  00 01 FF FF FF 00 91 61
  can0  18FF0400   [8]  03 C3 3F 03 CF 0D BF 4A
  can0  0CFF0500   [8]  FF FF FF FF FF FF FF FF
  can0  14FEF100   [8]  FF FF FE CC FF FF 1F FF
  can0  08F0090B   [8]  90 7D 20 71 7D 80 7D FF
  can0  08FE6E0B   [8]  FF FE FF FE FF FE FF FE
  can0  08FF000B   [8]  00 00 FF FA 0C FF EF C4
  can0  0CFE6C17   [8]  FF FF FF FF 00 FE 00 FE
  can0  14FF0217   [8]  FF FF FF FF FF FF FF FF
  can0  14FF1017   [8]  FF FF 00 00 FF FD FF FF
  can0  08F01D13   [8]  90 7D 20 FF 10 8A F5 A9
  can0  08F00200   [8]  FF FF FF FF FF FF FF FF
  can0  0CF00400   [8]  50 7D 84 FF FF 00 F6 7D
  can0  0CFF0300   [8]  7D FF FF FF FF FF FF FF
  can0  10FF0100   [8]  FF FF FF FF FF FF 06 FC
  can0  14F00000   [8]  FF 7D 7D FF FF FF FF 7D
  can0  08F0090B   [8]  90 7D 20 71 7D 80 7D FF
  can0  08FE6E0B   [8]  FF FE FF FE FF FE FF FE
  can0  08FF000B   [8]  00 00 FF FA 0C FF FF F6
  can0  0CFF000B   [8]  FF FF FF FF 00 FF F0 11
  can0  1001000B   [8]  FF FF FF FF FF FF FF FF
  can0  10FF0117   [8]  F0 FA F0 FF FF FF FF FF
  can0  14FEF217   [8]  FF FF FF FF FF FF FF FF
  can0  18FF0717   [8]  FF FF FF FF FF FF FF FF
  can0  08F01D13   [8]  90 7D 20 FF 10 8A F5 BA
  can0  08F00200   [8]  FF FF FF FF FF FF FF FF
  can0  0CFF0200   [8]  00 01 FF FF FF 00 A1 37
  can0  0CFF0500   [8]  FF FF FF FF FF FF FF FF
  can0  14F00500   [8]  FF FF FF FF FF FF FF FF
  can0  14FF1100   [8]  3F F7 FF 00 7F 13 08 FD
  can0  18F00100   [8]  FF FF FF FF 00 FF FF FF
  can0  08F0090B   [8]  90 7D 20 71 7D 80 7D FF
  can0  08FE6E0B   [8]  FF FE FF FE FF FE FF FE
  can0  08FF000B   [8]  00 00 FF FA 0C FF 0F 63
  can0  14FE6F0B   [8]  FF FF FF FF FF FF FF FF
  can0  14FEF200   [8]  FF FF 00 00 00 00 FF FF
  can0  14FF010B   [8]  FF 00 3F FF F0 FF 7F FF
  can0  14FF020B   [8]  7D 7D 7D 7D 80 80 FF FF
  can0  0CFE6C17   [8]  FF FF FF FF 00 FE 00 FE
  can0  18FD0517   [8]  7F FF FF FF FF FF FF FF
  can0  18FF0617   [8]  FF FF FF FF FF FF FF FF
  can0  08F01D13   [8]  90 7D 20 FF 10 8A F5 CB
  can0  08F00200   [8]  FF FF FF FF FF FF FF FF
  can0  0CF00400   [8]  50 7D 84 FF FF 00 F6 7D
  can0  0CFF0300   [8]  7D FF FF FF FF FF FF FF
  can0  10F00300   [8]  DD 00 FF FF FF FC FF FF
  can0  14FEDF00   [8]  85 FF FF FF FF FF FF FF
  can0  14FF0E00   [8]  FF FF FF FF FF FF 00 FB
  can0  18FF8000   [8]  FD 0B 04 0F 04 21 00 03
  can0  08F0090B   [8]  90 7D 20 71 7D 80 7D FF
  can0  08FE6E0B   [8]  FF FE FF FE FF FE FF FE
  can0  08FF000B   [8]  00 00 FF FA 0C FF 1F 51
  can0  0CFF000B   [8]  FF FF FF FF 00 FF 00 84
  can0  14FE4F0B   [8]  FF FF FF FF FF FF FF FF
  can0  14FF000B   [8]  FC 5F C1 C1 C1 FF 0F 43
  can0  14D0FF17   [8]  FF FF FF FF FF FF FF FF
  can0  18FF0517   [8]  00 00 00 F0 FF FF FF FF
  can0  18FF0817   [8]  00 0C 00 00 FF FF FF FF
  can0  08F01D13   [8]  8F 7D 20 FF 10 8A F5 CC
  can0  08F00200   [8]  FF FF FF FF FF FF FF FF
  can0  0CFF0200   [8]  00 01 FF FF FF 00 B1 05
  can0  0CFF0500   [8]  FF FF FF FF FF FF FF FF
  can0  10FF0000   [8]  FC A8 61 FC F3 28 F3 FC
  can0  14FF0D00   [8]  04 FF FB 07 00 3C 3F 3C
  can0  18FF0900   [8]  3C 47 FF FF FF FF FF FF
  can0  08F0090B   [8]  90 7D 20 71 7D 80 7D FF
  can0  08FE6E0B   [8]  FF FE FF FE FF FE FF FE
  can0  08FF000B   [8]  00 00 FF FA 0C FF 2F 07
  can0  10FF010B   [8]  4D 50 71 7D 71 7D 32 6B
  can0  14FDC40B   [8]  FF 0B 5F FF FF FF FF FF
  can0  14FEBF0B   [8]  FF FE FE FE FE FE FF FF
  can0  14FE5A2F   [8]  FF FF FF FF FF FF FF FF
  can0  0CFE6C17   [8]  FF FF FF FF 00 FE 00 FE
  can0  18FD7D17   [8]  FF FF FF FF FF FF FF FF
  can0  18FF0917   [8]  FF 03 FF FF FF FF FF FF
  can0  08F01D13   [8]  90 7D 20 FF 10 8A F5 FD
  can0  08F00200   [8]  FF FF FF FF FF FF FF FF
  can0  0CF00400   [8]  50 7D 84 FF FF 00 F6 7D
  can0  0CFF0300   [8]  7D FF FF FF FF FF FF FF
  can0  14FF0A00   [8]  FF FF FF 00 00 FF FF BF
  can0  18FD0900   [8]  00 00 00 00 00 00 00 00
  can0  08F0090B   [8]  8F 7D 20 71 7D 80 7D FF
  can0  08FE6E0B   [8]  FF FE FF FE FF FE FF FE
  can0  08FF000B   [8]  00 00 FF FA 0C FF 3F 35
  can0  0CFF000B   [8]  FF FF FF FF 00 FF 10 B6
  can0  14F0010B   [8]  0F 00 FF FF FF 1C FF FF
  can0  14FF0053   [8]  FF FF FF FF FF FF FF FF
  can0  14FEAE17   [8]  FF FF FF FF FF FF FF FF
  can0  18FF0417   [8]  C0 00 00 FF FF FF FF FF
  can0  18FF1317   [8]  FF FF FF FF FF FF FF FF
  can0  08F01D13   [8]  90 7D 20 FF 10 8A F5 0E
  can0  08F00200   [8]  FF FF FF FF FF FF FF FF
  can0  0CFF0200   [8]  00 01 FF FF FF 00 C1 9B
  can0  0CFF0500   [8]  FF FF FF FF FF FF FF FF
  can0  10FF0100   [8]  FF FF FF FF FF FF 06 FC
  can0  14FF0900   [8]  FF FF FF FF FF FF FF FF
  can0  08F0090B   [8]  90 7D 20 71 7D 80 7D FF
  can0  08FE6E0B   [8]  FF FE FF FE FF FE FF FE
  can0  08FF000B   [8]  00 00 FF FA 0C FF 4F AB
  can0  1001000B   [8]  FF FF FF FF FF FF FF FF
  can0  18FE700B   [8]  FF FF FF FF FF FF FF FF
  can0  0CFE6C17   [8]  FF FF FF FF 00 FE 00 FE
  can0  10FF0117   [8]  F0 FA F0 FF FF FF FF FF
  can0  18FF1517   [8]  FF FF FF FF FF FF FF FF
  can0  08F01D13   [8]  90 7D 20 FF 10 8A F5 1F
  can0  08F00200   [8]  FF FF FF FF FF FF FF FF
  can0  0CF00400   [8]  50 7D 84 FF FF 00 F6 7D
  can0  0CFF0300   [8]  7D FF FF FF FF FF FF FF
  can0  14FF0700   [8]  FF FF FF FF FF FF FF FF
  can0  14FF1600   [8]  FF FF FF FF FF FF FF FF
  can0  08F0090B   [8]  90 7D 20 71 7D 80 7D FF
  can0  08FE6E0B   [8]  FF FE FF FE FF FE FF FE
  can0  08FF000B   [8]  00 00 FF FA 0C FF 5F 99
  can0  0CFF000B   [8]  FF FF FF FF 00 FF 20 E0
  can0  18FF0025   [8]  F0 FF 64 0A 00 00 00 00
  can0  14FF0017   [8]  40 00 00 03 03 10 00 0C
  can0  18FF0317   [8]  FF FF FF FF FF FF FF FF
  can0  08F01D13   [8]  90 7D 20 FF 10 8A F5 10
  can0  18FF0098   [8]  FF FF FF FF FF FF FF FF
  can0  08F00200   [8]  FF FF FF FF FF FF FF FF
  can0  0CFF0200   [8]  00 01 FF FF FF 00 D1 A9
  can0  0CFF0500   [8]  FF FF FF FF FF FF FF FF
  can0  10F00300   [8]  DD 00 FF FF FF FC FF FF
  can0  14FF0600   [8]  FF 80 7F F7 FF FF FF FF
  can0  18FD9500   [8]  FF FF FF FF FF FF FF FF
  can0  08F0090B   [8]  90 7D 20 71 7D 80 7D FF
  can0  08FE6E0B   [8]  FF FE FF FE FF FE FF FE
  can0  08FF000B   [8]  00 00 FF FA 0C FF 6F CF
  can0  18FF0198   [8]  00 00 00 00 00 00 FF FF
  can0  18FF0298   [8]  00 FC FF FF FF FF FF FF
  can0  0CFE6C17   [8]  FF FF FF FF 00 FE 00 FE
  can0  18FF0117   [8]  FF FF FF FF FF FF FF FF
  can0  08F01D13   [8]  90 7D 20 FF 10 8A F5 21
  can0  08F00200   [8]  FF FF FF FF FF FF FF FF
  can0  0CF00400   [8]  50 7D 84 FF FF 00 F6 7D
  can0  0CFF0300   [8]  7D FF FF FF FF FF FF FF
  can0  10FF0000   [8]  FC A8 61 FC F3 28 F3 FC
  can0  14FF0000   [8]  FF FF FF 00 30 FF FF FF
  can0  18FF0503   [8]  FF FF FF FF FF FF FF FF
  can0  08F0090B   [8]  90 7D 20 71 7D 80 7D FF
  can0  08FE6E0B   [8]  FF FE FF FE FF FE FF FE
  can0  08FF000B   [8]  00 00 FF FA 0C FF 7F FD
  can0  0CFF000B   [8]  FF FF FF FF 00 FF 30 D2
  can0  10FF010B   [8]  9B 51 71 7D 71 7D 32 6B
  can0  14FF0117   [8]  00 00 F0 FF FC FF 00 00
  can0  18FF0217   [8]  03 30 00 00 00 10 00 00
  can0  08F01D13   [8]  90 7D 20 FF 10 8A F5 32
  can0  08F00200   [8]  FF FF FF FF FF FF FF FF
  can0  0CFF0200   [8]  00 01 FF FF FF 00 E1 FF
  can0  18FF0400   [8]  03 C3 3F 03 CF 0D CF D4
  can0  0CFF0500   [8]  FF FF FF FF FF FF FF FF
  can0  14FEF100   [8]  FF FF FE CC FF FF 1F FF
  can0  18FF0300   [8]  FF FF C3 FD FD FF FF FF
  can0  08F0090B   [8]  90 7D 20 71 7D 80 7D FF
  can0  08FE6E0B   [8]  FF FE FF FE FF FE FF FE
  can0  08FF000B   [8]  00 00 FF FA 0C FF 8F 68
  can0  0CFE6C17   [8]  FF FF FF FF 00 FE 00 FE
  can0  14FF0217   [8]  FF FF FF FF FF FF FF FF
  can0  14FF1017   [8]  FF FF 00 00 FF FD FF FF
  can0  08F01D13   [8]  8F 7D 20 FF 10 8A F5 33
  can0  08F00200   [8]  FF FF FF FF FF FF FF FF
  can0  0CF00400   [8]  50 7D 84 FF FF 00 F6 7D
  can0  0CFF0300   [8]  7D FF FF FF FF FF FF FF
  can0  10FF0100   [8]  FF FF FF FF FF FF 06 FC
  can0  14F00000   [8]  FF 7D 7D FF FF FF FF 7D
  can0  18FF0000   [8]  1F 0A DB 05 7D E3 FF FF
  can0  08F0090B   [8]  90 7D 20 71 7D 80 7D FF
  can0  08FE6E0B   [8]  FF FE FF FE FF FE FF FE
  can0  08FF000B   [8]  00 00 FF FA 0C FF 9F 5A
  can0  0CFF000B   [8]  FF FF FF FF 00 FF 40 4C
  can0  1001000B   [8]  FF FF FF FF FF FF FF FF
  can0  10FF0117   [8]  F0 FA F0 FF FF FF FF FF
  can0  14FEF217   [8]  FF FF FF FF FF FF FF FF
  can0  18FF0017   [8]  08 30 65 6E C0 FC FF 15
  can0  08F01D13   [8]  8F 7D 20 FF 10 8A F5 44
  can0  18FFC025   [8]  43 0C FF 40 50 F0 FF FF
  can0  08F00200   [8]  FF FF FF FF FF FF FF FF
  can0  0CFF0200   [8]  00 01 FF FF FF 00 F1 CD
  can0  0CFF0500   [8]  FF FF FF FF FF FF FF FF
  can0  14F00500   [8]  FF FF FF FF FF FF FF FF
  can0  14FF1100   [8]  3F F7 FF 00 7F 13 08 FD
  can0  18FEF800   [8]  FF FF FF FF 00 3D FF FF
  can0  18F00100   [8]  FF FF FF FF 00 FF FF FF
  can0  08F0090B   [8]  8F 7D 20 71 7D 80 7D FF
  can0  08FE6E0B   [8]  FF FE FF FE FF FE FF FE
  can0  08FF000B   [8]  00 00 FF FA 0C FF AF 0C
  can0  14FE6F0B   [8]  FF FF FF FF FF FF FF FF
  can0  14FEF200   [8]  FF FF 00 00 00 00 FF FF
  can0  14FF010B   [8]  FF 00 3F FF F0 FF 7F FF
  can0  14FF020B   [8]  7D 7D 7D 7D 80 80 FF FF
  can0  18FF800B   [8]  FD 13 84 0F E8 FF FF 03
  can0  18FFC125   [8]  FF FC 5A 33 01 00 00 00
  can0  0CFE6C17   [8]  FF FF FF FF 00 FE 00 FE
  can0  18FEE617   [8]  B4 34 15 05 0C 28 7D 7D
  can0  08F01D13   [8]  90 7D 20 FF 10 8A F5 65
  can0  08F00200   [8]  FF FF FF FF FF FF FF FF
  can0  0CF00400   [8]  50 7D 84 FF FF 00 F6 7D
  can0  0CFF0300   [8]  7D FF FF FF FF FF FF FF
  can0  10F00300   [8]  DD 00 FF FF FF FC FF FF
  can0  18FFC225   [8]  00 10 A0 01 C6 01 57 00
  can0  14FEDF00   [8]  85 FF FF FF FF FF FF FF
  can0  14FF0E00   [8]  FF FF FF FF FF FF 00 FB
  can0  08F0090B   [8]  8F 7D 20 71 7D 80 7D FF
  can0  08FE6E0B   [8]  FF FE FF FE FF FE FF FE
  can0  08FF000B   [8]  00 00 FF FA 0C FF BF 3E
  can0  0CFF000B   [8]  FF FF FF FF 00 FF 50 7E
  can0  14FE4F0B   [8]  FF FF FF FF FF FF FF FF
  can0  14FF000B   [8]  FC 5F C1 C1 C1 FF 1F 71
  can0  14D0FF17   [8]  FF FF FF FF FF FF FF FF
  can0  18FEC117   [8]  00 00 00 00 00 00 00 00
  can0  18FFC325   [8]  25 41 F3 50 C0 00 41 C0
  can0  08F01D13   [8]  90 7D 20 FF 10 8A F5 76
  can0  08F00200   [8]  FF FF FF FF FF FF FF FF
  can0  0CFF0200   [8]  00 01 FF FF FF 00 01 58
  can0  0CFF0500   [8]  FF FF FF FF FF FF FF FF
  can0  10FF0000   [8]  FC A8 61 FC F3 28 F3 FC
  can0  14FF0D00   [8]  04 FF FB 07 00 3C 3F 3C
  can0  18FEEE00   [8]  FF FF FF FF FF FF FF FF
  can0  08F0090B   [8]  90 7D 20 71 7D 80 7D FF
  can0  08FE6E0B   [8]  FF FE FF FE FF FE FF FE
  can0  08FF000B   [8]  00 00 FF FA 0C FF CF A0
  can0  10FF010B   [8]  7A 52 71 7D 71 7D 32 6B
  can0  14FDC40B   [8]  FF 0B 5F FF FF FF FF FF
  can0  18FFC425   [8]  13 D4 13 D4 F0 FF F0 FF
  can0  14FEBF0B   [8]  FF FE FE FE FE FE FF FF
  can0  14FE5A2F   [8]  FF FF FF FF FF FF FF FF
  can0  0CFE6C17   [8]  FF FF FF FF 00 FE 00 FE
  can0  18FD0917   [8]  FF FF FF FF FF FF FF FF
  can0  08F01D13   [8]  90 7D 20 FF 10 8A F5 87
  can0  18FFC725   [8]  43 00 FC FF FF FF FF FF
  can0  08F00200   [8]  FF FF FF FF FF FF FF FF
  can0  0CF00400   [8]  50 7D 84 FF FF 00 F6 7D
  can0  0CFF0300   [8]  7D FF FF FF FF FF FF FF
  can0  14FF0A00   [8]  FF FF FF 00 00 FF FF BF
  can0  18FEE500   [8]  FF FF FF FF FF FF FF FF
  can0  18FFAD01   [8]  FF FF FF FF FF FF FF FF
  can0  08F0090B   [8]  90 7D 20 71 7D 80 7D FF
  can0  08FE6E0B   [8]  FF FE FF FE FF FE FF FE
  can0  08FF000B   [8]  00 00 FF FA 0C FF DF 92
  can0  0CFF000B   [8]  FF FF FF FF 00 FF 60 28
  can0  14F0010B   [8]  0F 00 FF FF FF 1C FF FF
  can0  14FF0053   [8]  FF FF FF FF FF FF FF FF
  can0  18FFC525   [8]  01 05 15 14 01 44 00 01
  can0  14FEAE17   [8]  FF FF FF FF FF FF FF FF
  can0  18DEEE17   [8]  F0 FF FF FF FF FF FF FF
  can0  08F01D13   [8]  90 7D 20 FF 10 8A F5 98
  can0  08F00200   [8]  FF FF FF FF FF FF FF FF
  can0  0CFF0200   [8]  00 01 FF FF FF 00 11 6A
  can0  0CFF0500   [8]  FF FF FF FF FF FF FF FF
  can0  18FFC625   [8]  10 00 00 00 00 00 20 17
  can0  10FF0100   [8]  FF FF FF FF FF FF 06 FC
  can0  14FF0900   [8]  FF FF FF FF FF FF FF FF
  can0  14FF1200   [8]  FF FF 0D 0D 3C 01 EA FF
  can0  08F0090B   [8]  90 7D 20 71 7D 80 7D FF
  can0  08FE6E0B   [8]  FF FE FF FE FF FE FF FE
  can0  08FF000B   [8]  00 00 FF FA 0C FF EF C4
  can0  1001000B   [8]  FF FF FF FF FF FF FF FF
  can0  0CFE6C17   [8]  FF FF FF FF 00 FE 00 FE
  can0  10FF0117   [8]  F0 FA F0 FF FF FF FF FF
  can0  18FFC925   [8]  00 00 00 00 00 00 F0 FF
  can0  08F01D13   [8]  90 7D 20 FF 10 8A F5 A9
  can0  08F00200   [8]  FF FF FF FF FF FF FF FF
  can0  0CF00400   [8]  50 7D 84 FF FF 00 F6 7D
  can0  0CFF0300   [8]  7D FF FF FF FF FF FF FF
  can0  14FF0700   [8]  FF FF FF FF FF FF FF FF
  can0  14FF1600   [8]  FF FF FF FF FF FF FF FF
  can0  08F0090B   [8]  90 7D 20 71 7D 80 7D FF
  can0  08FE6E0B   [8]  FF FE FF FE FF FE FF FE
  can0  08FF000B   [8]  00 00 FF FA 0C FF FF F6
  can0  0CFF000B   [8]  FF FF FF FF 00 FF 70 1A
  can0  18FFCA25   [8]  02 46 5E 5E 40 1F 1C 25
  can0  14FF0017   [8]  40 00 00 03 03 10 00 0C
  can0  08F01D13   [8]  90 7D 20 FF 10 8A F5 BA
  can0  08F00200   [8]  FF FF FF FF FF FF FF FF
  can0  0CFF0200   [8]  00 01 FF FF FF 00 21 3C
  can0  0CFF0500   [8]  FF FF FF FF FF FF FF FF
  can0  10F00300   [8]  DD 00 FF FF FF FC FF FF
  can0  14FF0600   [8]  FF 80 7F F7 FF FF FF FF
  can0  08F0090B   [8]  90 7D 20 71 7D 80 7D FF
  can0  08FE6E0B   [8]  FF FE FF FE FF FE FF FE
  can0  08FF000B   [8]  00 00 FF FA 0C FF 0F 63
  can0  10FECA13   [8]  00 00 00 F0 F3 01 FF FF
  can0  0CFE6C17   [8]  FF FF FF FF 00 FE 00 FE
  can0  08F01D13   [8]  90 7D 20 FF 10 8A F5 CB
  can0  08F00200   [8]  FF FF FF FF FF FF FF FF
  can0  0CF00400   [8]  50 7D 84 FF FF 00 F6 7D
  can0  0CFF0300   [8]  7D FF FF FF FF FF FF FF
  can0  10FF0000   [8]  FC A8 61 FC F3 28 F3 FC
  can0  14FF0000   [8]  FF FF FF 00 30 FF FF FF
  can0  08F0090B   [8]  90 7D 20 71 7D 80 7D FF
  can0  08FE6E0B   [8]  FF FE FF FE FF FE FF FE
  can0  08FF000B   [8]  00 00 FF FA 0C FF 1F 51
  can0  0CFF000B   [8]  FF FF FF FF 00 FF 80 8F
  can0  10FF010B   [8]  AC 53 71 7D 71 7D 32 6B
  can0  14FF0117   [8]  00 00 F0 FF FC FF 00 00
  can0  08F01D13   [8]  90 7D 20 FF 10 8A F5 DC
  can0  08F00200   [8]  FF FF FF FF FF FF FF FF
  can0  0CFF0200   [8]  00 01 FF FF FF 00 31 0E
  can0  18FF0400   [8]  03 C3 3F 03 CF 0D DF E6
  can0  0CFF0500   [8]  FF FF FF FF FF FF FF FF
  can0  14FEF100   [8]  FF FF FE CC FF FF 1F FF
  can0  08F0090B   [8]  90 7D 20 71 7D 80 7D FF
  can0  08FE6E0B   [8]  FF FE FF FE FF FE FF FE
  can0  08FF000B   [8]  00 00 FF FA 0C FF 2F 07
  can0  0CFE6C17   [8]  FF FF FF FF 00 FE 00 FE
  can0  14FF0217   [8]  FF FF FF FF FF FF FF FF
  can0  14FF1017   [8]  FF FF 00 00 FF FD FF FF
  can0  08F01D13   [8]  8F 7D 20 FF 10 8A F5 DD
  can0  08F00200   [8]  FF FF FF FF FF FF FF FF
  can0  0CF00400   [8]  50 7D 84 FF FF 00 F6 7D
  can0  0CFF0300   [8]  7D FF FF FF FF FF FF FF
  can0  10FF0100   [8]  FF FF FF FF FF FF 06 FC
  can0  14F00000   [8]  FF 7D 7D FF FF FF FF 7D
  can0  08F0090B   [8]  90 7D 20 71 7D 80 7D FF
  can0  08FE6E0B   [8]  FF FE FF FE FF FE FF FE
  can0  08FF000B   [8]  00 00 FF FA 0C FF 3F 35
  can0  0CFF000B   [8]  FF FF FF FF 00 FF 90 BD
  can0  1001000B   [8]  FF FF FF FF FF FF FF FF
  can0  18FF8013   [8]  FD 17 04 0F 04 00 00 03
  can0  10FF0117   [8]  F0 FA F0 FF FF FF FF FF
  can0  14FEF217   [8]  FF FF FF FF FF FF FF FF
  can0  08F01D13   [8]  90 7D 20 FF 10 8A F5 0E
  can0  08F00200   [8]  FF FF FF FF FF FF FF FF
  can0  0CFF0200   [8]  00 01 FF FF FF 00 41 90
  can0  0CFF0500   [8]  FF FF FF FF FF FF FF FF
  can0  14F00500   [8]  FF FF FF FF FF FF FF FF
  can0  14FF1100   [8]  3F F7 FF 00 7F 13 08 FD
  can0  18F00100   [8]  FF FF FF FF 00 FF FF FF
  can0  08F0090B   [8]  8F 7D 20 71 7D 80 7D FF
  can0  08FE6E0B   [8]  FF FE FF FE FF FE FF FE
  can0  08FF000B   [8]  00 00 FF FA 0C FF 4F AB
  can0  14FE6F0B   [8]  FF FF FF FF FF FF FF FF
  can0  14FEF200   [8]  FF FF 00 00 00 00 FF FF
  can0  14FF010B   [8]  FF 00 3F FF F0 FF 7F FF
  can0  18FEEF00   [8]  FF FF FF FF FF FF FF FE
  can0  14FF020B   [8]  7D 7D 7D 7D 80 80 FF FF
  can0  0CFE6C17   [8]  FF FF FF FF 00 FE 00 FE
  can0  08F01D13   [8]  90 7D 20 FF 10 8A F5 1F
  can0  08F00200   [8]  FF FF FF FF FF FF FF FF
  can0  0CF00400   [8]  50 7D 84 FF FF 00 F6 7D
  can0  0CFF0300   [8]  7D FF FF FF FF FF FF FF
  can0  10F00300   [8]  DD 00 FF FF FF FC FF FF
  can0  14FEDF00   [8]  85 FF FF FF FF FF FF FF
  can0  14FF0E00   [8]  FF FF FF FF FF FF 00 FB
  can0  08F0090B   [8]  90 7D 20 71 7D 80 7D FF
  can0  08FE6E0B   [8]  FF FE FF FE FF FE FF FE
  can0  08FF000B   [8]  00 00 FF FA 0C FF 5F 99
  can0  0CFF000B   [8]  FF FF FF FF 00 FF A0 EB
  can0  14FE4F0B   [8]  FF FF FF FF FF FF FF FF
  can0  14FF000B   [8]  FC 5F C1 C1 C1 FF 2F 27
  can0  14D0FF17   [8]  FF FF FF FF FF FF FF FF
  can0  08F01D13   [8]  8F 7D 20 FF 10 8A F5 00
  can0  08F00200   [8]  FF FF FF FF FF FF FF FF
  can0  0CFF0200   [8]  00 01 FF FF FF 00 51 A2
  can0  0CFF0500   [8]  FF FF FF FF FF FF FF FF
  can0  10FF0000   [8]  FC A8 61 FC F3 28 F3 FC
  can0  14FF0D00   [8]  04 FF FB 07 00 3C 3F 3C
  can0  08F0090B   [8]  90 7D 20 71 7D 80 7D FF
  can0  08FE6E0B   [8]  FF FE FF FE FF FE FF FE
  can0  08FF000B   [8]  00 00 FF FA 0C FF 6F CF
  can0  10FF010B   [8]  23 54 71 7D 71 7D 32 6B
  can0  14FDC40B   [8]  FF 0B 5F FF FF FF FF FF
  can0  14FEBF0B   [8]  FF FE FE FE FE FE FF FF
  can0  14FE5A2F   [8]  FF FF FF FF FF FF FF FF
  can0  0CFE6C17   [8]  FF FF FF FF 00 FE 00 FE
  can0  08F01D13   [8]  90 7D 20 FF 10 8A F5 21
  can0  08F00200   [8]  FF FF FF FF FF FF FF FF
  can0  0CF00400   [8]  50 7D 84 FF FF 00 F6 7D
  can0  0CFF0300   [8]  7D FF FF FF FF FF FF FF
  can0  14FF0A00   [8]  FF FF FF 00 00 FF FF BF
  can0  08F0090B   [8]  8F 7D 20 71 7D 80 7D FF
  can0  08FE6E0B   [8]  FF FE FF FE FF FE FF FE
  can0  08FF000B   [8]  00 00 FF FA 0C FF 7F FD
  can0  0CFF000B   [8]  FF FF FF FF 00 FF B0 D9
  can0  14F0010B   [8]  0F 00 FF FF FF 1C FF FF
  can0  14FF0053   [8]  FF FF FF FF FF FF FF FF
  can0  14FEAE17   [8]  FF FF FF FF FF FF FF FF
  can0  08F01D13   [8]  90 7D 20 FF 10 8A F5 32
  can0  08F00200   [8]  FF FF FF FF FF FF FF FF
  can0  0CFF0200   [8]  00 01 FF FF FF 00 61 F4
  can0  0CFF0500   [8]  FF FF FF FF FF FF FF FF
  can0  10FF0100   [8]  FF FF FF FF FF FF 06 FC
  can0  14FF0900   [8]  FF FF FF FF FF FF FF FF
  can0  08F0090B   [8]  90 7D 20 71 7D 80 7D FF
  can0  08FE6E0B   [8]  FF FE FF FE FF FE FF FE
  can0  08FF000B   [8]  00 00 FF FA 0C FF 8F 68
  can0  1001000B   [8]  FF FF FF FF FF FF FF FF
  can0  0CFE6C17   [8]  FF FF FF FF 00 FE 00 FE
  can0  10FF0117   [8]  F0 FA F0 FF FF FF FF FF
  can0  08F01D13   [8]  8F 7D 20 FF 10 8A F5 33
  can0  08F00200   [8]  FF FF FF FF FF FF FF FF
  can0  0CF00400   [8]  50 7D 84 FF FF 00 F6 7D
  can0  0CFF0300   [8]  7D FF FF FF FF FF FF FF
  can0  14FF0700   [8]  FF FF FF FF FF FF FF FF
  can0  14FF1600   [8]  FF FF FF FF FF FF FF FF
  can0  08F0090B   [8]  90 7D 20 71 7D 80 7D FF
  can0  08FE6E0B   [8]  FF FE FF FE FF FE FF FE
  can0  08FF000B   [8]  00 00 FF FA 0C FF 9F 5A
  can0  0CFF000B   [8]  FF FF FF FF 00 FF C0 47
  can0  14FF0017   [8]  40 00 00 03 03 10 00 0C
  can0  08F01D13   [8]  90 7D 20 FF 10 8A F5 54
  can0  08F00200   [8]  FF FF FF FF FF FF FF FF
  can0  0CFF0200   [8]  00 01 FF FF FF 00 71 C6
  can0  0CFF0500   [8]  FF FF FF FF FF FF FF FF
  can0  10F00300   [8]  DD 00 FF FF FF FC FF FF
  can0  14FF0600   [8]  FF 80 7F F7 FF FF FF FF
  can0  08F0090B   [8]  8F 7D 20 71 7D 80 7D FF
  can0  08FE6E0B   [8]  FF FE FF FE FF FE FF FE
  can0  08FF000B   [8]  00 00 FF FA 0C FF AF 0C
  can0  0CFE6C17   [8]  FF FF FF FF 00 FE 00 FE
  can0  08F01D13   [8]  90 7D 20 FF 10 8A F5 65
  can0  08F00200   [8]  FF FF FF FF FF FF FF FF
  can0  0CF00400   [8]  50 7D 84 FF FF 00 F6 7D
  can0  0CFF0300   [8]  7D FF FF FF FF FF FF FF
  can0  10FF0000   [8]  FC A8 61 FC F3 28 F3 FC
  can0  14FF0000   [8]  FF FF FF 00 30 FF FF FF
  can0  08F0090B   [8]  90 7D 20 71 7D 80 7D FF
  can0  08FE6E0B   [8]  FF FE FF FE FF FE FF FE
  can0  08FF000B   [8]  00 00 FF FA 0C FF BF 3E
  can0  0CFF000B   [8]  FF FF FF FF 00 FF D0 75
  can0  10FF010B   [8]  F5 55 71 7D 71 7D 32 6B
  can0  14FF0117   [8]  00 00 F0 FF FC FF 00 00
  can0  08F01D13   [8]  90 7D 20 FF 10 8A F5 76
  can0  08F00200   [8]  FF FF FF FF FF FF FF FF
  can0  0CFF0200   [8]  00 01 FF FF FF 00 81 53
  can0  18FF0400   [8]  03 C3 3F 03 CF 0D EF B0
  can0  0CFF0500   [8]  FF FF FF FF FF FF FF FF
  can0  14FEF100   [8]  FF FF FE CC FF FF 1F FF
  can0  08F0090B   [8]  90 7D 20 71 7D 80 7D FF
  can0  08FE6E0B   [8]  FF FE FF FE FF FE FF FE
  can0  08FF000B   [8]  00 00 FF FA 0C FF CF A0
  can0  0CFE6C17   [8]  FF FF FF FF 00 FE 00 FE
  can0  14FF0217   [8]  FF FF FF FF FF FF FF FF
  can0  14FF1017   [8]  FF FF 00 00 FF FD FF FF
  can0  08F01D13   [8]  90 7D 20 FF 10 8A F5 87
  can0  08F00200   [8]  FF FF FF FF FF FF FF FF
  can0  0CF00400   [8]  50 7D 84 FF FF 00 F6 7D
  can0  0CFF0300   [8]  7D FF FF FF FF FF FF FF
  can0  10FF0100   [8]  FF FF FF FF FF FF 06 FC
  can0  14F00000   [8]  FF 7D 7D FF FF FF FF 7D
  can0  08F0090B   [8]  90 7D 20 71 7D 80 7D FF
  can0  08FE6E0B   [8]  FF FE FF FE FF FE FF FE
  can0  08FF000B   [8]  00 00 FF FA 0C FF DF 92
  can0  0CFF000B   [8]  FF FF FF FF 00 FF E0 23
  can0  1001000B   [8]  FF FF FF FF FF FF FF FF
  can0  18FF8017   [8]  FD 25 04 0F 4C B8 09 03
  can0  10FF0117   [8]  F0 FA F0 FF FF FF FF FF
  can0  14FEF217   [8]  FF FF FF FF FF FF FF FF
  can0  08F01D13   [8]  8F 7D 20 FF 10 8A F5 88
  can0  08F00200   [8]  FF FF FF FF FF FF FF FF
  can0  0CFF0200   [8]  00 01 FF FF FF 00 91 61
  can0  0CFF0500   [8]  FF FF FF FF FF FF FF FF
  can0  14F00500   [8]  FF FF FF FF FF FF FF FF
  can0  14FF1100   [8]  3F F7 FF 00 7F 13 08 FD
  can0  18F00100   [8]  FF FF FF FF 00 FF FF FF
  can0  08F0090B   [8]  90 7D 20 71 7D 80 7D FF
  can0  08FE6E0B   [8]  FF FE FF FE FF FE FF FE
  can0  08FF000B   [8]  00 00 FF FA 0C FF EF C4
  can0  14FE6F0B   [8]  FF FF FF FF FF FF FF FF
  can0  14FEF200   [8]  FF FF 00 00 00 00 FF FF
  can0  14FF010B   [8]  FF 00 3F FF F0 FF 7F FF
  can0  14FF020B   [8]  7D 7D 7D 7D 80 80 FF FF
  can0  0CFE6C17   [8]  FF FF FF FF 00 FE 00 FE
  can0  08F01D13   [8]  90 7D 20 FF 10 8A F5 A9
  can0  08F00200   [8]  FF FF FF FF FF FF FF FF
  can0  0CF00400   [8]  50 7D 84 FF FF 00 F6 7D
  can0  0CFF0300   [8]  7D FF FF FF FF FF FF FF
  can0  10F00300   [8]  DD 00 FF FF FF FC FF FF
  can0  14FEDF00   [8]  85 FF FF FF FF FF FF FF
  can0  14FF0E00   [8]  FF FF FF FF FF FF 00 FB
  can0  08F0090B   [8]  8F 7D 20 71 7D 80 7D FF
  can0  08FE6E0B   [8]  FF FE FF FE FF FE FF FE
  can0  08FF000B   [8]  00 00 FF FA 0C FF FF F6
  can0  0CFF000B   [8]  FF FF FF FF 00 FF F0 11
  can0  14FE4F0B   [8]  FF FF FF FF FF FF FF FF
  can0  14FF000B   [8]  FC 5F C1 C1 C1 FF 3F 15
  can0  14D0FF17   [8]  FF FF FF FF FF FF FF FF
  can0  08F01D13   [8]  8F 7D 20 FF 10 8A F5 AA
  can0  08F00200   [8]  FF FF FF FF FF FF FF FF
  can0  0CFF0200   [8]  00 01 FF FF FF 00 A1 37
  can0  0CFF0500   [8]  FF FF FF FF FF FF FF FF
  can0  10FF0000   [8]  FC A8 61 FC F3 28 F3 FC
  can0  14FF0D00   [8]  04 FF FB 07 00 3C 3F 3C
  can0  08F0090B   [8]  90 7D 20 71 7D 80 7D FF
  can0  08FE6E0B   [8]  FF FE FF FE FF FE FF FE
  can0  08FF000B   [8]  00 00 FF FA 0C FF 0F 63
  can0  10FF010B   [8]  14 56 71 7D 71 7D 32 6B
  can0  14FDC40B   [8]  FF 0B 5F FF FF FF FF FF
  can0  14FEBF0B   [8]  FF FE FE FE FE FE FF FF
  can0  14FE5A2F   [8]  FF FF FF FF FF FF FF FF
  can0  0CFE6C17   [8]  FF FF FF FF 00 FE 00 FE
  can0  08F01D13   [8]  90 7D 20 FF 10 8A F5 CB
  can0  08F00200   [8]  FF FF FF FF FF FF FF FF
  can0  0CF00400   [8]  50 7D 84 FF FF 00 F6 7D
  can0  0CFF0300   [8]  7D FF FF FF FF FF FF FF
  can0  14FF0A00   [8]  FF FF FF 00 00 FF FF BF
  can0  08F0090B   [8]  8F 7D 20 71 7D 80 7D FF
  can0  08FE6E0B   [8]  FF FE FF FE FF FE FF FE
  can0  08FF000B   [8]  00 00 FF FA 0C FF 1F 51
  can0  0CFF000B   [8]  FF FF FF FF 00 FF 00 84
  can0  14F0010B   [8]  0F 00 FF FF FF 1C FF FF
  can0  14FF0053   [8]  FF FF FF FF FF FF FF FF
  can0  14FEAE17   [8]  FF FF FF FF FF FF FF FF
  can0  08F01D13   [8]  90 7D 20 FF 10 8A F5 DC
  can0  08F00200   [8]  FF FF FF FF FF FF FF FF
  can0  0CFF0200   [8]  00 01 FF FF FF 00 B1 05
  can0  0CFF0500   [8]  FF FF FF FF FF FF FF FF
  can0  10FF0100   [8]  FF FF FF FF FF FF 06 FC
  can0  14FF0900   [8]  FF FF FF FF FF FF FF FF
  can0  08F0090B   [8]  90 7D 20 71 7D 80 7D FF
  can0  08FE6E0B   [8]  FF FE FF FE FF FE FF FE
  can0  08FF000B   [8]  00 00 FF FA 0C FF 2F 07
  can0  1001000B   [8]  FF FF FF FF FF FF FF FF
  can0  0CFE6C17   [8]  FF FF FF FF 00 FE 00 FE
  can0  10FF0117   [8]  F0 FA F0 FF FF FF FF FF
  can0  08F01D13   [8]  8F 7D 20 FF 10 8A F5 DD
  can0  08F00200   [8]  FF FF FF FF FF FF FF FF
  can0  0CF00400   [8]  50 7D 84 FF FF 00 F6 7D
  can0  0CFF0300   [8]  7D FF FF FF FF FF FF FF
  can0  14FF0700   [8]  FF FF FF FF FF FF FF FF
  can0  14FF1600   [8]  FF FF FF FF FF FF FF FF
  can0  08F0090B   [8]  90 7D 20 71 7D 80 7D FF
  can0  08FE6E0B   [8]  FF FE FF FE FF FE FF FE
  can0  08FF000B   [8]  00 00 FF FA 0C FF 3F 35
  can0  0CFF000B   [8]  FF FF FF FF 00 FF 10 B6
  can0  14FF0017   [8]  40 00 00 03 03 10 00 0C
  can0  08F01D13   [8]  90 7D 20 FF 10 8A F5 0E
  can0  08F00200   [8]  FF FF FF FF FF FF FF FF
  can0  0CFF0200   [8]  00 01 FF FF FF 00 C1 9B
  can0  0CFF0500   [8]  FF FF FF FF FF FF FF FF
  can0  10F00300   [8]  DD 00 FF FF FF FC FF FF
  can0  14FF0600   [8]  FF 80 7F F7 FF FF FF FF
  can0  08F0090B   [8]  8F 7D 20 71 7D 80 7D FF
  can0  08FE6E0B   [8]  FF FE FF FE FF FE FF FE
  can0  08FF000B   [8]  00 00 FF FA 0C FF 4F AB
  can0  0CFE6C17   [8]  FF FF FF FF 00 FE 00 FE
  can0  08F01D13   [8]  8F 7D 20 FF 10 8A F5 0F
  can0  08F00200   [8]  FF FF FF FF FF FF FF FF
  can0  0CF00400   [8]  50 7D 84 FF FF 00 F6 7D
  can0  0CFF0300   [8]  7D FF FF FF FF FF FF FF
  can0  10FF0000   [8]  FC A8 61 FC F3 28 F3 FC
  can0  14FF0000   [8]  FF FF FF 00 30 FF FF FF
  can0  08F0090B   [8]  90 7D 20 71 7D 80 7D FF
  can0  08FE6E0B   [8]  FF FE FF FE FF FE FF FE
  can0  08FF000B   [8]  00 00 FF FA 0C FF 5F 99
  can0  0CFF000B   [8]  FF FF FF FF 00 FF 20 E0
  can0  10FF010B   [8]  C2 57 71 7D 71 7D 32 6B
  can0  14FF0117   [8]  00 00 F0 FF FC FF 00 00
  can0  08F01D13   [8]  8F 7D 20 FF 10 8A F5 00
  can0  08F00200   [8]  FF FF FF FF FF FF FF FF
  can0  0CFF0200   [8]  00 01 FF FF FF 00 D1 A9
  can0  18FF0400   [8]  03 C3 3F 03 CF 0D FF 82
  can0  0CFF0500   [8]  FF FF FF FF FF FF FF FF
  can0  14FEF100   [8]  FF FF FE CC FF FF 1F FF
  can0  08F0090B   [8]  8F 7D 20 71 7D 80 7D FF
  can0  08FE6E0B   [8]  FF FE FF FE FF FE FF FE
  can0  08FF000B   [8]  00 00 FF FA 0C FF 6F CF
  can0  0CFE6C17   [8]  FF FF FF FF 00 FE 00 FE
  can0  14FF0217   [8]  FF FF FF FF FF FF FF FF
  can0  18FF8025   [8]  FD 00 84 0F 20 00 FF 03
  can0  14FF1017   [8]  FF FF 00 00 FF FD FF FF
  can0  08F01D13   [8]  90 7D 20 FF 10 8A F5 21
  can0  08F00200   [8]  FF FF FF FF FF FF FF FF
  can0  0CF00400   [8]  50 7D 84 FF FF 00 F6 7D
  can0  0CFF0300   [8]  7D FF FF FF FF FF FF FF
  can0  10FF0100   [8]  FF FF FF FF FF FF 06 FC
  can0  14F00000   [8]  FF 7D 7D FF FF FF FF 7D
  can0  08F0090B   [8]  8F 7D 20 71 7D 6B 7D FF
  can0  08FE6E0B   [8]  FF FE FF FE FF FE FF FE
  can0  08FF000B   [8]  00 00 FF FA 0C FF 7F FD
  can0  0CFF000B   [8]  FF FF FF FF 00 FF 30 D2
  can0  1001000B   [8]  FF FF FF FF FF FF FF FF
  can0  10FF0117   [8]  F0 FA F0 FF FF FF FF FF
  can0  14FEF217   [8]  FF FF FF FF FF FF FF FF
  can0  08F01D13   [8]  90 7D 20 FF 10 8A F5 32
  can0  08F00200   [8]  FF FF FF FF FF FF FF FF
  can0  0CFF0200   [8]  00 01 FF FF FF 00 E1 FF
  can0  0CFF0500   [8]  FF FF FF FF FF FF FF FF
  can0  14F00500   [8]  FF FF FF FF FF FF FF FF
  can0  14FF1100   [8]  3F F7 FF 00 7F 13 08 FD
  can0  18F00100   [8]  FF FF FF FF 00 FF FF FF
  can0  08F0090B   [8]  90 7D 20 71 7D 6B 7D FF
  can0  08FE6E0B   [8]  FF FE FF FE FF FE FF FE
  can0  08FF000B   [8]  00 00 FF FA 0C FF 8F 68
  can0  14FE6F0B   [8]  FF FF FF FF FF FF FF FF
  can0  14FEF200   [8]  FF FF 00 00 00 00 FF FF
  can0  14FF010B   [8]  FF 00 3F FF F0 FF 7F FF
  can0  14FF020B   [8]  7D 7D 7D 7D 80 80 FF FF
  can0  0CFE6C17   [8]  FF FF FF FF 00 FE 00 FE
  can0  08F01D13   [8]  90 7D 20 FF 10 8A F5 43
  can0  08F00200   [8]  FF FF FF FF FF FF FF FF
  can0  0CF00400   [8]  50 7D 84 FF FF 00 F6 7D
  can0  0CFF0300   [8]  7D FF FF FF FF FF FF FF
  can0  10F00300   [8]  DD 00 FF FF FF FC FF FF
  can0  14FEDF00   [8]  85 FF FF FF FF FF FF FF
  can0  14FF0E00   [8]  FF FF FF FF FF FF 00 FB
  can0  08F0090B   [8]  90 7D 20 71 7D 6B 7D FF
  can0  08FE6E0B   [8]  FF FE FF FE FF FE FF FE
  can0  08FF000B   [8]  00 00 FF FA 0C FF 9F 5A
  can0  0CFF000B   [8]  FF FF FF FF 00 FF 40 4C
  can0  14FE4F0B   [8]  FF FF FF FF FF FF FF FF
  can0  14FF000B   [8]  FC 5F C1 C1 C1 FF 4F 8B
  can0  14D0FF17   [8]  FF FF FF FF FF FF FF FF
  can0  08F01D13   [8]  8F 7D 20 FF 10 8A F5 44
  can0  08F00200   [8]  FF FF FF FF FF FF FF FF
  can0  0CFF0200   [8]  00 01 FF FF FF 00 F1 CD
  can0  0CFF0500   [8]  FF FF FF FF FF FF FF FF
  can0  10FF0000   [8]  FC A8 61 FC F3 28 F3 FC
  can0  14FF0D00   [8]  04 FF FB 07 00 3C 3F 3C
  can0  08F0090B   [8]  90 7D 20 71 7D 6B 7D FF
  can0  08FE6E0B   [8]  FF FE FF FE FF FE FF FE
  can0  08FF000B   [8]  00 00 FF FA 0C FF AF 0C
  can0  10FF010B   [8]  91 58 71 7D 71 7D 32 6B
  can0  14FDC40B   [8]  FF 0B 5F FF FF FF FF FF
  can0  14FEBF0B   [8]  FF FE FE FE FE FE FF FF
  can0  14FE5A2F   [8]  FF FF FF FF FF FF FF FF
  can0  0CFE6C17   [8]  FF FF FF FF 00 FE 00 FE
  can0  08F01D13   [8]  90 7D 20 FF 10 8A F5 65
  can0  08F00200   [8]  FF FF FF FF FF FF FF FF
  can0  0CF00400   [8]  50 7D 84 FF FF 00 F6 7D
  can0  0CFF0300   [8]  7D FF FF FF FF FF FF FF
  can0  14FF0A00   [8]  FF FF FF 00 00 FF FF BF
  can0  08F0090B   [8]  8F 7D 20 71 7D 6B 7D FF
  can0  08FE6E0B   [8]  FF FE FF FE FF FE FF FE
  can0  08FF000B   [8]  00 00 FF FA 0C FF BF 3E
  can0  0CFF000B   [8]  FF FF FF FF 00 FF 50 7E
  can0  14F0010B   [8]  0F 00 FF FF FF 1C FF FF
  can0  14FF0053   [8]  FF FF FF FF FF FF FF FF
  can0  14FEAE17   [8]  FF FF FF FF FF FF FF FF
  can0  08F01D13   [8]  8F 7D 20 FF 10 8A F5 66
  can0  08F00200   [8]  FF FF FF FF FF FF FF FF
  can0  0CFF0200   [8]  00 01 FF FF FF 00 01 58
  can0  0CFF0500   [8]  FF FF FF FF FF FF FF FF
  can0  10FF0100   [8]  FF FF FF FF FF FF 06 FC
  can0  14FF0900   [8]  FF FF FF FF FF FF FF FF
  can0  08F0090B   [8]  90 7D 20 71 7D 6B 7D FF
  can0  08FE6E0B   [8]  FF FE FF FE FF FE FF FE
  can0  08FF000B   [8]  00 00 FF FA 0C FF CF A0
  can0  1001000B   [8]  FF FF FF FF FF FF FF FF
  can0  0CFE6C17   [8]  FF FF FF FF 00 FE 00 FE
  can0  10FF0117   [8]  F0 FA F0 FF FF FF FF FF
  can0  08F01D13   [8]  90 7D 20 FF 10 8A F5 87
  can0  08F00200   [8]  FF FF FF FF FF FF FF FF
  can0  0CF00400   [8]  50 7D 84 FF FF 00 F6 7D
  can0  0CFF0300   [8]  7D FF FF FF FF FF FF FF
  can0  14FF0700   [8]  FF FF FF FF FF FF FF FF
  can0  14FF1600   [8]  FF FF FF FF FF FF FF FF
  can0  08F0090B   [8]  8F 7D 20 71 7D 6B 7D FF
  can0  08FE6E0B   [8]  FF FE FF FE FF FE FF FE
  can0  08FF000B   [8]  00 00 FF FA 0C FF DF 92
  can0  0CFF000B   [8]  FF FF FF FF 00 FF 60 28
  can0  14FF0017   [8]  40 00 00 03 03 10 00 0C
  can0  08F01D13   [8]  90 7D 20 FF 10 8A F5 98
  can0  08F00200   [8]  FF FF FF FF FF FF FF FF
  can0  0CFF0200   [8]  00 01 FF FF FF 00 11 6A
  can0  0CFF0500   [8]  FF FF FF FF FF FF FF FF
  can0  10F00300   [8]  DD 00 FF FF FF FC FF FF
  can0  14FF0600   [8]  FF 80 7F F7 FF FF FF FF
  can0  08F0090B   [8]  90 7D 20 71 7D 80 7D FF
  can0  08FE6E0B   [8]  FF FE FF FE FF FE FF FE
  can0  08FF000B   [8]  00 00 FF FA 0C FF EF C4
  can0  0CFE6C17   [8]  FF FF FF FF 00 FE 00 FE
  can0  08F01D13   [8]  90 7D 20 FF 10 8A F5 A9
  can0  08F00200   [8]  FF FF FF FF FF FF FF FF
  can0  0CF00400   [8]  50 7D 84 FF FF 00 F6 7D
  can0  0CFF0300   [8]  7D FF FF FF FF FF FF FF
  can0  10FF0000   [8]  FC A8 61 FC F3 28 F3 FC
  can0  14FF0000   [8]  FF FF FF 00 30 FF FF FF
  can0  08F0090B   [8]  90 7D 20 71 7D 80 7D FF
  can0  08FE6E0B   [8]  FF FE FF FE FF FE FF FE
  can0  08FF000B   [8]  00 00 FF FA 0C FF FF F6
  can0  0CFF000B   [8]  FF FF FF FF 00 FF 70 1A
  can0  10FECA17   [8]  00 FF 54 00 05 4B FF FF
  can0  10FF010B   [8]  47 59 71 7D 71 7D 32 6B
  can0  14FF0117   [8]  00 00 F0 FF FC FF 00 00
  can0  08F01D13   [8]  8F 7D 20 FF 10 8A F5 AA
  can0  08F00200   [8]  FF FF FF FF FF FF FF FF
  can0  0CFF0200   [8]  00 01 FF FF FF 00 21 3C
  can0  18FF0400   [8]  03 C3 3F 03 CF 0D 0F 17
  can0  0CFF0500   [8]  FF FF FF FF FF FF FF FF
  can0  14FEF100   [8]  FF FF FE CC FF FF 1F FF
  can0  18FF8000   [8]  FD 0B 04 0F 04 21 00 03
  can0  08F0090B   [8]  90 7D 20 71 7D 80 7D FF
  can0  08FE6E0B   [8]  FF FE FF FE FF FE FF FE
  can0  08FF000B   [8]  00 00 FF FA 0C FF 0F 63
  can0  0CFE6C17   [8]  FF FF FF FF 00 FE 00 FE
  can0  14FF0217   [8]  FF FF FF FF FF FF FF FF
  can0  14FF1017   [8]  FF FF 00 00 FF FD FF FF
  can0  08F01D13   [8]  90 7D 20 FF 10 8A F5 CB
  can0  08F00200   [8]  FF FF FF FF FF FF FF FF
  can0  0CF00400   [8]  50 7D 84 FF FF 00 F6 7D
  can0  0CFF0300   [8]  7D FF FF FF FF FF FF FF
  can0  10FF0100   [8]  FF FF FF FF FF FF 06 FC
  can0  14F00000   [8]  FF 7D 7D FF FF FF FF 7D
  can0  08F0090B   [8]  8F 7D 20 71 7D 80 7D FF
  can0  08FE6E0B   [8]  FF FE FF FE FF FE FF FE
  can0  08FF000B   [8]  00 00 FF FA 0C FF 1F 51
  can0  0CFF000B   [8]  FF FF FF FF 00 FF 80 8F
  can0  1001000B   [8]  FF FF FF FF FF FF FF FF
  can0  10FF0117   [8]  F0 FA F0 FF FF FF FF FF
  can0  14FEF217   [8]  FF FF FF FF FF FF FF FF
  can0  08F01D13   [8]  90 7D 20 FF 10 8A F5 DC
  can0  08F00200   [8]  FF FF FF FF FF FF FF FF
  can0  0CFF0200   [8]  00 01 FF FF FF 00 31 0E
  can0  0CFF0500   [8]  FF FF FF FF FF FF FF FF
  can0  14F00500   [8]  FF FF FF FF FF FF FF FF
  can0  14FF1100   [8]  3F F7 FF 00 7F 13 08 FD
  can0  18F00100   [8]  FF FF FF FF 00 FF FF FF
  can0  08F0090B   [8]  90 7D 20 71 7D 80 7D FF
  can0  08FE6E0B   [8]  FF FE FF FE FF FE FF FE
  can0  08FF000B   [8]  00 00 FF FA 0C FF 2F 07
  can0  14FE6F0B   [8]  FF FF FF FF FF FF FF FF
  can0  14FEF200   [8]  FF FF 00 00 00 00 FF FF
  can0  14FF010B   [8]  FF 00 3F FF F0 FF 7F FF
  can0  14FF020B   [8]  7D 7D 7D 7D 80 80 FF FF
  can0  0CFE6C17   [8]  FF FF FF FF 00 FE 00 FE
  can0  08F01D13   [8]  90 7D 20 FF 10 8A F5 FD
  can0  08F00200   [8]  FF FF FF FF FF FF FF FF
  can0  0CF00400   [8]  50 7D 84 FF FF 00 F6 7D
  can0  0CFF0300   [8]  7D FF FF FF FF FF FF FF
  can0  10F00300   [8]  DD 00 FF FF FF FC FF FF
  can0  14FEDF00   [8]  85 FF FF FF FF FF FF FF
  can0  14FF0E00   [8]  FF FF FF FF FF FF 00 FB
  can0  08F0090B   [8]  90 7D 20 71 7D 80 7D FF

[32m.[0mcansniffer output:
 [?25l[2J[HXX|ms | -- ID -- | data ...     < can0 # l=20 h=100 t=500 slots=26 >[H00
00006 | 08F00200 | [1m[31mFF[0m [1m[31mFF[0m [1m[31mFF[0m [1m[31mFF[0m [1m[31mFF[0m [1m[31mFF[0m [1m[31mFF[0m [1m[31mFF[0m ........
00010 | 08F0090B | [1m[31m90[0m [1m[31m7D[0m [1m[31m20[0m [1m[31m71[0m [1m[31m7D[0m [1m[31m80[0m [1m[31m7D[0m [1m[31mFF[0m .[1m[31m}[0m[1m[31m [0m[1m[31mq[0m[1m[31m}[0m.[1m[31m}[0m.
00010 | 08F01D13 | [1m[31m90[0m [1m[31m7D[0m [1m[31m20[0m [1m[31mFF[0m [1m[31m10[0m [1m[31m8A[0m [1m[31mF5[0m [1m[31m98[0m .[1m[31m}[0m[1m[31m [0m.....
00010 | 08FE6E0B | [1m[31mFF[0m [1m[31mFE[0m [1m[31mFF[0m [1m[31mFE[0m [1m[31mFF[0m [1m[31mFE[0m [1m[31mFF[0m [1m[31mFE[0m ........
00009 | 08FF000B | 00 00 [1m[31mFF[0m [1m[31mFA[0m [1m[31m0C[0m [1m[31mFF[0m [1m[31mDF[0m [1m[31m92[0m ........
99999 | 0CF00400 | [1m[31m50[0m [1m[31m7D[0m [1m[31m84[0m [1m[31mFF[0m [1m[31mFF[0m 00 [1m[31mF6[0m [1m[31m7D[0m [1m[31mP[0m[1m[31m}[0m.....[1m[31m}[0m
99999 | 0CFE6C17 | [1m[31mFF[0m [1m[31mFF[0m [1m[31mFF[0m [1m[31mFF[0m 00 [1m[31mFE[0m 00 [1m[31mFE[0m ........
99999 | 0CFF000B | [1m[31mFF[0m [1m[31mFF[0m [1m[31mFF[0m [1m[31mFF[0m 00 [1m[31mFF[0m [1m[31m60[0m [1m[31m28[0m ......[1m[31m`[0m[1m[31m([0m
00019 | 0CFF0200 | 00 [1m[31m01[0m [1m[31mFF[0m [1m[31mFF[0m [1m[31mFF[0m 00 [1m[31m11[0m [1m[31m6A[0m .......[1m[31mj[0m
99999 | 0CFF0300 | [1m[31m7D[0m [1m[31mFF[0m [1m[31mFF[0m [1m[31mFF[0m [1m[31mFF[0m [1m[31mFF[0m [1m[31mFF[0m [1m[31mFF[0m [1m[31m}[0m.......
00019 | 0CFF0500 | [1m[31mFF[0m [1m[31mFF[0m [1m[31mFF[0m [1m[31mFF[0m [1m[31mFF[0m [1m[31mFF[0m [1m[31mFF[0m [1m[31mFF[0m ........
99999 | 10F00300 | [1m[31mDD[0m 00 [1m[31mFF[0m [1m[31mFF[0m [1m[31mFF[0m [1m[31mFC[0m [1m[31mFF[0m [1m[31mFF[0m ........
99999 | 10FF0000 | [1m[31mFC[0m [1m[31mA8[0m [1m[31m61[0m [1m[31mFC[0m [1m[31mF3[0m [1m[31m28[0m [1m[31mF3[0m [1m[31mFC[0m ..[1m[31ma[0m..[1m[31m([0m..
99999 | 14D0FF17 | [1m[31mFF[0m [1m[31mFF[0m [1m[31mFF[0m [1m[31mFF[0m [1m[31mFF[0m [1m[31mFF[0m [1m[31mFF[0m [1m[31mFF[0m ........
99999 | 14F00500 | [1m[31mFF[0m [1m[31mFF[0m [1m[31mFF[0m [1m[31mFF[0m [1m[31mFF[0m [1m[31mFF[0m [1m[31mFF[0m [1m[31mFF[0m ........
99999 | 14FE4F0B | [1m[31mFF[0m [1m[31mFF[0m [1m[31mFF[0m [1m[31mFF[0m [1m[31mFF[0m [1m[31mFF[0m [1m[31mFF[0m [1m[31mFF[0m ........
99999 | 14FE6F0B | [1m[31mFF[0m [1m[31mFF[0m [1m[31mFF[0m [1m[31mFF[0m [1m[31mFF[0m [1m[31mFF[0m [1m[31mFF[0m [1m[31mFF[0m ........
99999 | 14FEDF00 | [1m[31m85[0m [1m[31mFF[0m [1m[31mFF[0m [1m[31mFF[0m [1m[31mFF[0m [1m[31mFF[0m [1m[31mFF[0m [1m[31mFF[0m ........
99999 | 14FEF200 | [1m[31mFF[0m [1m[31mFF[0m 00 00 00 00 [1m[31mFF[0m [1m[31mFF[0m ........
99999 | 14FF000B | [1m[31mFC[0m [1m[31m5F[0m [1m[31mC1[0m [1m[31mC1[0m [1m[31mC1[0m [1m[31mFF[0m [1m[31mEF[0m [1m[31mE4[0m .[1m[31m_[0m......
99999 | 14FF010B | [1m[31mFF[0m 00 [1m[31m3F[0m [1m[31mFF[0m [1m[31mF0[0m [1m[31mFF[0m [1m[31m7F[0m [1m[31mFF[0m ..[1m[31m?[0m.....
99999 | 14FF020B | [1m[31m7D[0m [1m[31m7D[0m [1m[31m7D[0m [1m[31m7D[0m [1m[31m80[0m [1m[31m80[0m [1m[31mFF[0m [1m[31mFF[0m [1m[31m}[0m[1m[31m}[0m[1m[31m}[0m[1m[31m}[0m....
99999 | 14FF0E00 | [1m[31mFF[0m [1m[31mFF[0m [1m[31mFF[0m [1m[31mFF[0m [1m[31mFF[0m [1m[31mFF[0m 00 [1m[31mFB[0m ........
99999 | 14FF1100 | [1m[31m3F[0m [1m[31mF7[0m [1m[31mFF[0m 00 [1m[31m7F[0m [1m[31m13[0m [1m[31m08[0m [1m[31mFD[0m [1m[31m?[0m.......
99999 | 18F00100 | [1m[31mFF[0m [1m[31mFF[0m [1m[31mFF[0m [1m[31mFF[0m 00 [1m[31mFF[0m [1m[31mFF[0m [1m[31mFF[0m ........
99999 | 18FF8025 | [1m[31mFD[0m 00 [1m[31m84[0m [1m[31m0F[0m [1m[31m20[0m 00 [1m[31mFF[0m [1m[31m03[0m ....[1m[31m [0m...
[2J[HXX|ms | -- ID -- | data ...     < can0 # l=20 h=100 t=500 slots=61 >[H01
00006 | 08F00200 | FF FF FF FF FF FF FF FF ........
00010 | 08F0090B | [1m[31m90[0m 7D 20 71 7D [1m[31m80[0m 7D FF .} q}.}.
00009 | 08F01D13 | [1m[31m90[0m 7D 20 FF 10 8A F5 [1m[31mDC[0m .} .....
00010 | 08FE6E0B | FF FE FF FE FF FE FF FE ........
00010 | 08FF000B | 00 00 FF FA 0C FF [1m[31m1F[0m [1m[31m51[0m .......[1m[31mQ[0m
00020 | 0CF00400 | 50 7D 84 FF FF 00 F6 7D P}.....}
00020 | 0CFE6C17 | FF FF FF FF 00 FE 00 FE ........
00020 | 0CFF000B | FF FF FF FF 00 FF [1m[31m00[0m [1m[31m84[0m ........
00019 | 0CFF0200 | 00 01 FF FF FF 00 [1m[31mB1[0m [1m[31m05[0m ........
00020 | 0CFF0300 | 7D FF FF FF FF FF FF FF }.......
00019 | 0CFF0500 | FF FF FF FF FF FF FF FF ........
00050 | 1001000B | [1m[31mFF[0m [1m[31mFF[0m [1m[31mFF[0m [1m[31mFF[0m [1m[31mFF[0m [1m[31mFF[0m [1m[31mFF[0m [1m[31mFF[0m ........
99999 | 10ECFF25 | [1m[31m20[0m [1m[31m0E[0m 00 [1m[31m02[0m [1m[31mFF[0m [1m[31mCA[0m [1m[31mFE[0m 00 [1m[31m [0m.......
00050 | 10F00300 | DD 00 FF FF FF FC FF FF ........
99999 | 10FECA98 | 00 [1m[31mFF[0m [1m[31mFE[0m [1m[31m2B[0m [1m[31m9F[0m [1m[31m01[0m [1m[31mFF[0m [1m[31mFF[0m ...[1m[31m+[0m....
00049 | 10FF0000 | FC A8 61 FC F3 28 F3 FC ..a..(..
00049 | 10FF0100 | [1m[31mFF[0m [1m[31mFF[0m [1m[31mFF[0m [1m[31mFF[0m [1m[31mFF[0m [1m[31mFF[0m [1m[31m06[0m [1m[31mFC[0m ........
00050 | 10FF010B | [1m[31m1E[0m [1m[31m5F[0m [1m[31m71[0m [1m[31m7D[0m [1m[31m71[0m [1m[31m7D[0m [1m[31m32[0m [1m[31m6B[0m .[1m[31m_[0m[1m[31mq[0m[1m[31m}[0m[1m[31mq[0m[1m[31m}[0m[1m[31m2[0m[1m[31mk[0m
00049 | 10FF0117 | [1m[31mF0[0m [1m[31mFA[0m [1m[31mF0[0m [1m[31mFF[0m [1m[31mFF[0m [1m[31mFF[0m [1m[31mFF[0m [1m[31mFF[0m ........
00100 | 14D0FF17 | FF FF FF FF FF FF FF FF ........
00099 | 14F00000 | [1m[31mFF[0m [1m[31m7D[0m [1m[31m7D[0m [1m[31mFF[0m [1m[31mFF[0m [1m[31mFF[0m [1m[31mFF[0m [1m[31m7D[0m .[1m[31m}[0m[1m[31m}[0m....[1m[31m}[0m
00100 | 14F0010B | [1m[31m0F[0m 00 [1m[31mFF[0m [1m[31mFF[0m [1m[31mFF[0m [1m[31m1C[0m [1m[31mFF[0m [1m[31mFF[0m ........
00100 | 14F00500 | FF FF FF FF FF FF FF FF ........
00099 | 14FDC40B | [1m[31mFF[0m [1m[31m0B[0m [1m[31m5F[0m [1m[31mFF[0m [1m[31mFF[0m [1m[31mFF[0m [1m[31mFF[0m [1m[31mFF[0m ..[1m[31m_[0m.....
00099 | 14FE4F0B | FF FF FF FF FF FF FF FF ........
00100 | 14FE5A2F | [1m[31mFF[0m [1m[31mFF[0m [1m[31mFF[0m [1m[31mFF[0m [1m[31mFF[0m [1m[31mFF[0m [1m[31mFF[0m [1m[31mFF[0m ........
00100 | 14FE6F0B | FF FF FF FF FF FF FF FF ........
00099 | 14FEAE17 | [1m[31mFF[0m [1m[31mFF[0m [1m[31mFF[0m [1m[31mFF[0m [1m[31mFF[0m [1m[31mFF[0m [1m[31mFF[0m [1m[31mFF[0m ........
00100 | 14FEBF0B | [1m[31mFF[0m [1m[31mFE[0m [1m[31mFE[0m [1m[31mFE[0m [1m[31mFE[0m [1m[31mFE[0m [1m[31mFF[0m [1m[31mFF[0m ........
00100 | 14FEDF00 | 85 FF FF FF FF FF FF FF ........
00099 | 14FEF100 | [1m[31mFF[0m [1m[31mFF[0m [1m[31mFE[0m [1m[31mCC[0m [1m[31mFF[0m [1m[31mFF[0m [1m[31m1F[0m [1m[31mFF[0m ........
00100 | 14FEF200 | FF FF 00 00 00 00 FF FF ........
00100 | 14FEF217 | [1m[31mFF[0m [1m[31mFF[0m [1m[31mFF[0m [1m[31mFF[0m [1m[31mFF[0m [1m[31mFF[0m [1m[31mFF[0m [1m[31mFF[0m ........
00099 | 14FF0000 | [1m[31mFF[0m [1m[31mFF[0m [1m[31mFF[0m 00 [1m[31m30[0m [1m[31mFF[0m [1m[31mFF[0m [1m[31mFF[0m ....[1m[31m0[0m...
00099 | 14FF000B | FC 5F C1 C1 C1 FF [1m[31m0F[0m [1m[31m43[0m ._.....[1m[31mC[0m
00099 | 14FF0017 | [1m[31m40[0m 00 00 [1m[31m03[0m [1m[31m03[0m [1m[31m10[0m 00 [1m[31m0C[0m [1m[31m@[0m.......
00100 | 14FF0053 | [1m[31mFF[0m [1m[31mFF[0m [1m[31mFF[0m [1m[31mFF[0m [1m[31mFF[0m [1m[31mFF[0m [1m[31mFF[0m [1m[31mFF[0m ........
00100 | 14FF010B | FF 00 3F FF F0 FF 7F FF ..?.....
00099 | 14FF0117 | 00 00 [1m[31mF0[0m [1m[31mFF[0m [1m[31mFC[0m [1m[31mFF[0m 00 00 ........
00100 | 14FF020B | 7D 7D 7D 7D 80 80 FF FF }}}}....
00100 | 14FF0217 | [1m[31mFF[0m [1m[31mFF[0m [1m[31mFF[0m [1m[31mFF[0m [1m[31mFF[0m [1m[31mFF[0m [1m[31mFF[0m [1m[31mFF[0m ........
00100 | 14FF0600 | [1m[31mFF[0m [1m[31m80[0m [1m[31m7F[0m [1m[31mFF[0m [1m[31mFF[0m [1m[31mFF[0m [1m[31mFF[0m [1m[31mFF[0m ........
00100 | 14FF0700 | [1m[31mFF[0m [1m[31mFF[0m [1m[31mFF[0m [1m[31mFF[0m [1m[31mFF[0m [1m[31mFF[0m [1m[31mFF[0m [1m[31mFF[0m ........
00099 | 14FF0900 | [1m[31mFF[0m [1m[31mFF[0m [1m[31mFF[0m [1m[31mFF[0m [1m[31mFF[0m [1m[31mFF[0m [1m[31mFF[0m [1m[31mFF[0m ........
00099 | 14FF0A00 | [1m[31mFF[0m [1m[31mFF[0m [1m[31mFF[0m 00 00 [1m[31mFF[0m [1m[31mFF[0m [1m[31mBF[0m ........
00100 | 14FF0D00 | [1m[31m04[0m [1m[31mFF[0m [1m[31mFB[0m [1m[31m07[0m 00 [1m[31m3C[0m [1m[31m3F[0m [1m[31m3C[0m .....[1m[31m<[0m[1m[31m?[0m[1m[31m<[0m
00099 | 14FF0E00 | FF FF FF FF FF FF 00 FB ........
00099 | 14FF1017 | [1m[31mFF[0m [1m[31mFF[0m 00 00 [1m[31mFF[0m [1m[31mFD[0m [1m[31mFF[0m [1m[31mFF[0m ........
00100 | 14FF1100 | 3F F7 FF 00 7F 13 08 FD ?.......
00100 | 14FF1600 | [1m[31mFF[0m [1m[31mFF[0m [1m[31mFF[0m [1m[31mFF[0m [1m[31mFF[0m [1m[31mFF[0m [1m[31mFF[0m [1m[31mFF[0m ........
00100 | 18F00100 | FF FF FF FF 00 FF FF FF ........
99999 | 18FEC100 | 00 00 00 00 00 00 00 00 ........
99999 | 18FEEF00 | [1m[31mFF[0m [1m[31mFF[0m [1m[31mFF[0m [1m[31mFF[0m [1m[31mFF[0m [1m[31mFF[0m [1m[31mFF[0m [1m[31mFE[0m ........
99999 | 18FEF500 | [1m[31mFF[0m [1m[31mFF[0m [1m[31mFF[0m [1m[31mE0[0m [1m[31m24[0m [1m[31mFF[0m [1m[31mFF[0m [1m[31mFF[0m ....[1m[31m$[0m...
00100 | 18FF0400 | [1m[31m03[0m [1m[31mC3[0m [1m[31m3F[0m [1m[31m03[0m [1m[31mCF[0m [1m[31m0D[0m [1m[31mBF[0m [1m[31m4A[0m ..[1m[31m?[0m....[1m[31mJ[0m
99999 | 18FF7400 | 00 00 [1m[31mFF[0m [1m[31mFF[0m [1m[31mFF[0m [1m[31mFF[0m [1m[31mFF[0m [1m[31mFF[0m ........
99999 | 18FF8000 | [1m[31mFD[0m [1m[31m0B[0m [1m[31m04[0m [1m[31m0F[0m [1m[31m04[0m [1m[31m21[0m 00 [1m[31m03[0m .....[1m[31m![0m..
99999 | 18FF800B | [1m[31mFD[0m [1m[31m13[0m [1m[31m84[0m [1m[31m0F[0m [1m[31mE8[0m [1m[31mFF[0m [1m[31mFF[0m [1m[31m03[0m ........
99999 | 18FF8025 | FD 00 84 0F 20 00 FF 03 .... ...
00060 | 1CEBFF00 | [1m[31m02[0m [1m[31mF3[0m [1m[31mEE[0m [1m[31m01[0m [1m[31m6F[0m [1m[31m00[0m [1m[31m04[0m [1m[31m01[0m ....[1m[31mo[0m...
99999 | 1CECFF00 | [1m[31m20[0m [1m[31m16[0m 00 [1m[31m04[0m [1m[31mFF[0m [1m[31mCA[0m [1m[31mFE[0m 00 [1m[31m [0m.......
[2J[HXX|ms | -- ID -- | data ...     < can0 # l=20 h=100 t=500 slots=70 >[H02
00006 | 08F00200 | FF FF FF FF FF FF FF FF ........
00010 | 08F0090B | [1m[31m90[0m 7D 20 71 7D [1m[31m6B[0m 7D FF .} q}[1m[31mk[0m}.
00010 | 08F01D13 | [1m[31m90[0m 7D 20 FF 10 8A F5 [1m[31m10[0m .} .....
00010 | 08FE6E0B | FF FE FF FE FF FE FF FE ........
00010 | 08FF000B | 00 00 FF FA 0C FF [1m[31m5F[0m [1m[31m99[0m ......[1m[31m_[0m.
00020 | 0CF00400 | 50 7D 84 FF FF 00 F6 7D P}.....}
00020 | 0CFE6C17 | FF FF FF FF 00 FE 00 FE ........
00019 | 0CFF000B | FF FF FF FF 00 FF [1m[31mA0[0m [1m[31mEB[0m ........
00019 | 0CFF0200 | 00 01 FF FF FF 00 [1m[31m51[0m [1m[31mA2[0m ......[1m[31mQ[0m.
00020 | 0CFF0300 | 7D FF FF FF FF FF FF FF }.......
00019 | 0CFF0500 | FF FF FF FF FF FF FF FF ........
00050 | 1001000B | FF FF FF FF FF FF FF FF ........
00050 | 10EBFF25 | [1m[31m02[0m [1m[31mFC[0m [1m[31mFF[0m [1m[31m39[0m [1m[31mC8[0m [1m[31mFF[0m [1m[31mFF[0m [1m[31m26[0m ...[1m[31m9[0m...[1m[31m&[0m
99999 | 10ECFF25 | 20 0E 00 02 FF CA FE 00  .......
00050 | 10F00300 | DD 00 FF FF FF FC FF FF ........
99999 | 10FECA98 | 00 FF FE 2B 9F 01 FF FF ...+....
00049 | 10FF0000 | FC A8 61 FC F3 28 F3 FC ..a..(..
00049 | 10FF0100 | FF FF FF FF FF FF 06 FC ........
00050 | 10FF010B | [1m[31mAC[0m [1m[31m53[0m 71 7D 71 7D 32 6B .[1m[31mS[0mq}q}2k
00049 | 10FF0117 | F0 FA F0 FF FF FF FF FF ........
00100 | 14D0FF17 | FF FF FF FF FF FF FF FF ........
00099 | 14F00000 | FF 7D 7D FF FF FF FF 7D .}}....}
00100 | 14F0010B | 0F 00 FF FF FF 1C FF FF ........
00100 | 14F00500 | FF FF FF FF FF FF FF FF ........
00099 | 14FDC40B | FF 0B 5F FF FF FF FF FF .._.....
00099 | 14FE4F0B | FF FF FF FF FF FF FF FF ........
00100 | 14FE5A2F | FF FF FF FF FF FF FF FF ........
00100 | 14FE6F0B | FF FF FF FF FF FF FF FF ........
00099 | 14FEAE17 | FF FF FF FF FF FF FF FF ........
00100 | 14FEBF0B | FF FE FE FE FE FE FF FF ........
00100 | 14FEDF00 | 85 FF FF FF FF FF FF FF ........
00099 | 14FEF100 | FF FF FE CC FF FF 1F FF ........
00100 | 14FEF200 | FF FF 00 00 00 00 FF FF ........
00100 | 14FEF217 | FF FF FF FF FF FF FF FF ........
00099 | 14FF0000 | FF FF FF 00 30 FF FF FF ....0...
00099 | 14FF000B | FC 5F C1 C1 C1 FF [1m[31m2F[0m [1m[31m27[0m ._....[1m[31m/[0m[1m[31m'[0m
00099 | 14FF0017 | 40 00 00 03 03 10 00 0C @.......
00100 | 14FF0053 | FF FF FF FF FF FF FF FF ........
00100 | 14FF010B | FF 00 3F FF F0 FF 7F FF ..?.....
00099 | 14FF0117 | 00 00 F0 FF FC FF 00 00 ........
00100 | 14FF020B | 7D 7D 7D 7D 80 80 FF FF }}}}....
00100 | 14FF0217 | FF FF FF FF FF FF FF FF ........
00100 | 14FF0600 | FF 80 7F FF FF FF FF FF ........
00100 | 14FF0700 | FF FF FF FF FF FF FF FF ........
00099 | 14FF0900 | FF FF FF FF FF FF FF FF ........
00099 | 14FF0A00 | FF FF FF 00 00 FF FF BF ........
00100 | 14FF0D00 | 04 FF FB 07 00 3C 3F 3C .....<?<
00099 | 14FF0E00 | FF FF FF FF FF FF 00 FB ........
00099 | 14FF1017 | FF FF 00 00 FF FD FF FF ........
00100 | 14FF1100 | 3F F7 FF 00 7F 13 08 FD ?.......
00100 | 14FF1600 | FF FF FF FF FF FF FF FF ........
00100 | 18F00100 | FF FF FF FF 00 FF FF FF ........
99999 | 18FD0517 | [1m[31m7F[0m [1m[31mFF[0m [1m[31mFF[0m [1m[31mFF[0m [1m[31mFF[0m [1m[31mFF[0m [1m[31mFF[0m [1m[31mFF[0m ........
99999 | 18FD7C00 | [1m[31mFF[0m [1m[31mFF[0m [1m[31mD3[0m [1m[31m30[0m [1m[31mFD[0m [1m[31mFF[0m [1m[31mFF[0m [1m[31mFF[0m ...[1m[31m0[0m....
99999 | 18FEC100 | 00 00 00 00 00 00 00 00 ........
99999 | 18FEEF00 | FF FF FF FF FF FF FF FE ........
99999 | 18FEF500 | FF FF FF E0 24 FF FF FF ....$...
00100 | 18FF0400 | 03 C3 3F 03 CF 0D [1m[31mDF[0m [1m[31mE6[0m ..?.....
99999 | 18FF0517 | 00 00 00 [1m[31mF0[0m [1m[31mFF[0m [1m[31mFF[0m [1m[31mFF[0m [1m[31mFF[0m ........
99999 | 18FF0617 | [1m[31mFF[0m [1m[31mFF[0m [1m[31mFF[0m [1m[31mFF[0m [1m[31mFF[0m [1m[31mFF[0m [1m[31mFF[0m [1m[31mFF[0m ........
99999 | 18FF0717 | [1m[31mFF[0m [1m[31mFF[0m [1m[31mFF[0m [1m[31mFF[0m [1m[31mFF[0m [1m[31mFF[0m [1m[31mFF[0m [1m[31mFF[0m ........
99999 | 18FF0817 | 00 [1m[31m0C[0m 00 00 [1m[31mFF[0m [1m[31mFF[0m [1m[31mFF[0m [1m[31mFF[0m ........
99999 | 18FF7400 | 00 00 FF FF FF FF FF FF ........
99999 | 18FF8000 | FD 0B 04 0F 04 21 00 03 .....!..
99999 | 18FF800B | FD 13 84 0F E8 FF FF 03 ........
99999 | 18FF8013 | [1m[31mFD[0m [1m[31m17[0m [1m[31m04[0m [1m[31m0F[0m [1m[31m04[0m 00 00 [1m[31m03[0m ........
99999 | 18FF8017 | [1m[31mFD[0m [1m[31m25[0m [1m[31m04[0m [1m[31m0F[0m [1m[31m4C[0m [1m[31mB8[0m [1m[31m09[0m [1m[31m03[0m .[1m[31m%[0m..[1m[31mL[0m...
99999 | 18FF8025 | FD 00 84 0F 20 00 FF 03 .... ...
00059 | 1CEBFF00 | [1m[31m04[0m [1m[31m03[0m [1m[31mFF[0m [1m[31mFF[0m [1m[31mFF[0m [1m[31mFF[0m [1m[31mFF[0m [1m[31mFF[0m ........
99999 | 1CECFF00 | 20 16 00 04 FF CA FE 00  .......
[2J[HXX|ms | -- ID -- | data ...     < can0 # l=20 h=100 t=500 slots=110 >[H03
00006 | 08F00200 | FF FF FF FF FF FF FF FF ........
00009 | 08F0090B | [1m[31m90[0m 7D 20 71 7D [1m[31m6B[0m 7D FF .} q}[1m[31mk[0m}.
00010 | 08F01D13 | [1m[31m8F[0m 7D 20 FF 10 8A F5 [1m[31m44[0m .} ....[1m[31mD[0m
00010 | 08FE6E0B | FF FE FF FE FF FE FF FE ........
00009 | 08FF000B | 00 00 FF FA 0C FF [1m[31m9F[0m [1m[31m5A[0m .......[1m[31mZ[0m
00020 | 0CF00400 | 50 7D 84 FF FF 00 F6 7D P}.....}
00020 | 0CFE6C17 | FF FF FF FF 00 FE 00 FE ........
00020 | 0CFF000B | FF FF FF FF 00 FF [1m[31m40[0m [1m[31m4C[0m ......[1m[31m@[0m[1m[31mL[0m
00019 | 0CFF0200 | 00 01 FF FF FF 00 [1m[31mF1[0m [1m[31mCD[0m ........
00020 | 0CFF0300 | 7D FF FF FF FF FF FF FF }.......
00019 | 0CFF0500 | FF FF FF FF FF FF FF FF ........
00050 | 1001000B | FF FF FF FF FF FF FF FF ........
00050 | 10EBFF25 | 02 FC FF 39 C8 FF FF 26 ...9...&
99999 | 10ECFF25 | 20 0E 00 02 FF CA FE 00  .......
00050 | 10F00300 | DD 00 FF FF FF FC FF FF ........
99999 | 10FECA13 | 00 00 00 [1m[31mF0[0m [1m[31mF3[0m [1m[31m01[0m [1m[31mFF[0m [1m[31mFF[0m ........
99999 | 10FECA98 | 00 FF FE 2B 9F 01 FF FF ...+....
00049 | 10FF0000 | FC A8 61 FC F3 28 F3 FC ..a..(..
00049 | 10FF0100 | FF FF FF FF FF FF 06 FC ........
00050 | 10FF010B | [1m[31mC2[0m [1m[31m57[0m 71 7D 71 7D 32 6B .[1m[31mW[0mq}q}2k
00049 | 10FF0117 | F0 FA F0 FF FF FF FF FF ........
00100 | 14D0FF17 | FF FF FF FF FF FF FF FF ........
00099 | 14F00000 | FF 7D 7D FF FF FF FF 7D .}}....}
00100 | 14F0010B | 0F 00 FF FF FF 1C FF FF ........
00100 | 14F00500 | FF FF FF FF FF FF FF FF ........
00099 | 14FDC40B | FF 0B 5F FF FF FF FF FF .._.....
00099 | 14FE4F0B | FF FF FF FF FF FF FF FF ........
00100 | 14FE5A2F | FF FF FF FF FF FF FF FF ........
00100 | 14FE6F0B | FF FF FF FF FF FF FF FF ........
00099 | 14FEAE17 | FF FF FF FF FF FF FF FF ........
00100 | 14FEBF0B | FF FE FE FE FE FE FF FF ........
00100 | 14FEDF00 | 85 FF FF FF FF FF FF FF ........
00099 | 14FEF100 | FF FF FE CC FF FF 1F FF ........
00100 | 14FEF200 | FF FF 00 00 00 00 FF FF ........
00100 | 14FEF217 | FF FF FF FF FF FF FF FF ........
00099 | 14FF0000 | FF FF FF 00 30 FF FF FF ....0...
00099 | 14FF000B | FC 5F C1 C1 C1 FF [1m[31m4F[0m [1m[31m8B[0m ._....[1m[31mO[0m.
00099 | 14FF0017 | 40 00 00 03 03 10 00 0C @.......
00100 | 14FF0053 | FF FF FF FF FF FF FF FF ........
00100 | 14FF010B | FF 00 3F FF F0 FF 7F FF ..?.....
00099 | 14FF0117 | 00 00 F0 FF FC FF 00 00 ........
00100 | 14FF020B | 7D 7D 7D 7D 80 80 FF FF }}}}....
00100 | 14FF0217 | FF FF FF FF FF FF FF FF ........
00100 | 14FF0600 | FF 80 7F FF FF FF FF FF ........
00100 | 14FF0700 | FF FF FF FF FF FF FF FF ........
00099 | 14FF0900 | FF FF FF FF FF FF FF FF ........
00099 | 14FF0A00 | FF FF FF 00 00 FF FF BF ........
00100 | 14FF0D00 | 04 FF FB 07 00 3C 3F 3C .....<?<
00099 | 14FF0E00 | FF FF FF FF FF FF 00 FB ........
00099 | 14FF1017 | FF FF 00 00 FF FD FF FF ........
00100 | 14FF1100 | 3F F7 FF 00 7F 13 08 FD ?.......
99999 | 14FF1200 | [1m[31mFF[0m [1m[31mFF[0m [1m[31m0D[0m [1m[31m0D[0m [1m[31m3C[0m 00 [1m[31mEA[0m [1m[31mFF[0m ....[1m[31m<[0m...
00100 | 14FF1600 | FF FF FF FF FF FF FF FF ........
99999 | 18DEEE17 | [1m[31mF0[0m [1m[31mFF[0m [1m[31mFF[0m [1m[31mFF[0m [1m[31mFF[0m [1m[31mFF[0m [1m[31mFF[0m [1m[31mFF[0m ........
00100 | 18F00100 | FF FF FF FF 00 FF FF FF ........
99999 | 18FD0517 | 7F FF FF FF FF FF FF FF ........
99999 | 18FD0900 | 00 00 00 00 00 00 00 00 ........
99999 | 18FD0917 | [1m[31mFF[0m [1m[31mFF[0m [1m[31mFF[0m [1m[31mFF[0m [1m[31mFF[0m [1m[31mFF[0m [1m[31mFF[0m [1m[31mFF[0m ........
99999 | 18FD7C00 | FF FF D3 30 FD FF FF FF ...0....
99999 | 18FD7D17 | [1m[31mFF[0m [1m[31mFF[0m [1m[31mFF[0m [1m[31mFF[0m [1m[31mFF[0m [1m[31mFF[0m [1m[31mFF[0m [1m[31mFF[0m ........
99999 | 18FD9500 | [1m[31mFF[0m [1m[31mFF[0m [1m[31mFF[0m [1m[31mFF[0m [1m[31mFF[0m [1m[31mFF[0m [1m[31mFF[0m [1m[31mFF[0m ........
99999 | 18FE700B | [1m[31mFF[0m [1m[31mFF[0m [1m[31mFF[0m [1m[31mFF[0m [1m[31mFF[0m [1m[31mFF[0m [1m[31mFF[0m [1m[31mFF[0m ........
99999 | 18FEC100 | 00 00 00 00 00 00 00 00 ........
99999 | 18FEC117 | 00 00 00 00 00 00 00 00 ........
99999 | 18FEE500 | [1m[31mFF[0m [1m[31mFF[0m [1m[31mFF[0m [1m[31mFF[0m [1m[31mFF[0m [1m[31mFF[0m [1m[31mFF[0m [1m[31mFF[0m ........
99999 | 18FEE617 | [1m[31mC4[0m [1m[31m34[0m [1m[31m15[0m [1m[31m05[0m [1m[31m0C[0m [1m[31m28[0m [1m[31m7D[0m [1m[31m7D[0m .[1m[31m4[0m...[1m[31m([0m[1m[31m}[0m[1m[31m}[0m
99999 | 18FEEE00 | [1m[31mFF[0m [1m[31mFF[0m [1m[31mFF[0m [1m[31mFF[0m [1m[31mFF[0m [1m[31mFF[0m [1m[31mFF[0m [1m[31mFF[0m ........
00499 | 18FEEF00 | FF FF FF FF FF FF FF FE ........
99999 | 18FEF500 | FF FF FF E0 24 FF FF FF ....$...
99999 | 18FEF800 | [1m[31mFF[0m [1m[31mFF[0m [1m[31mFF[0m [1m[31mFF[0m [1m[31mFF[0m [1m[31mFF[0m [1m[31mFF[0m [1m[31mFF[0m ........
99999 | 18FF0000 | [1m[31m1F[0m [1m[31m0A[0m [1m[31mDB[0m [1m[31m05[0m [1m[31m7D[0m [1m[31mE3[0m [1m[31mFF[0m [1m[31mFF[0m ....[1m[31m}[0m...
99999 | 18FF0017 | [1m[31m08[0m [1m[31m30[0m [1m[31m65[0m [1m[31m6E[0m [1m[31mC0[0m [1m[31mFC[0m [1m[31mFF[0m [1m[31m15[0m .[1m[31m0[0m[1m[31me[0m[1m[31mn[0m....
99999 | 18FF0025 | [1m[31mF0[0m [1m[31mFF[0m [1m[31m64[0m [1m[31m0A[0m 00 00 00 00 ..[1m[31md[0m.....
99999 | 18FF0098 | [1m[31mFF[0m [1m[31mFF[0m [1m[31mFF[0m [1m[31mFF[0m [1m[31mFF[0m [1m[31mFF[0m [1m[31mFF[0m [1m[31mFF[0m ........
99999 | 18FF0117 | [1m[31mFF[0m [1m[31mFF[0m [1m[31mFF[0m [1m[31mFF[0m [1m[31mFF[0m [1m[31mFF[0m [1m[31mFF[0m [1m[31mFF[0m ........
99999 | 18FF0198 | 00 00 00 00 00 00 [1m[31mFF[0m [1m[31mFF[0m ........
99999 | 18FF0217 | [1m[31m03[0m [1m[31m30[0m 00 00 00 [1m[31m10[0m 00 00 .[1m[31m0[0m......
99999 | 18FF0298 | 00 [1m[31mFC[0m [1m[31mFF[0m [1m[31mFF[0m [1m[31mFF[0m [1m[31mFF[0m [1m[31mFF[0m [1m[31mFF[0m ........
99999 | 18FF0300 | [1m[31mFF[0m [1m[31mFF[0m [1m[31mC3[0m [1m[31mFD[0m [1m[31mFD[0m [1m[31mFF[0m [1m[31mFF[0m [1m[31mFF[0m ........
99999 | 18FF0317 | [1m[31mFF[0m [1m[31mFF[0m [1m[31mFF[0m [1m[31mFF[0m [1m[31mFF[0m [1m[31mFF[0m [1m[31mFF[0m [1m[31mFF[0m ........
00099 | 18FF0400 | 03 C3 3F 03 CF 0D [1m[31mFF[0m [1m[31m82[0m ..?.....
99999 | 18FF0417 | [1m[31mC0[0m 00 00 [1m[31mFF[0m [1m[31mFF[0m [1m[31mFF[0m [1m[31mFF[0m [1m[31mFF[0m ........
99999 | 18FF0503 | [1m[31mFF[0m [1m[31mFF[0m [1m[31mFF[0m [1m[31mFF[0m [1m[31mFF[0m [1m[31mFF[0m [1m[31mFF[0m [1m[31mFF[0m ........
99999 | 18FF0517 | 00 00 00 F0 FF FF FF FF ........
99999 | 18FF0617 | FF FF FF FF FF FF FF FF ........
99999 | 18FF0717 | FF FF FF FF FF FF FF FF ........
99999 | 18FF0817 | 00 0C 00 00 FF FF FF FF ........
99999 | 18FF0900 | [1m[31m3C[0m [1m[31m47[0m [1m[31mFF[0m [1m[31mFF[0m [1m[31mFF[0m [1m[31mFF[0m [1m[31mFF[0m [1m[31mFF[0m [1m[31m<[0m[1m[31mG[0m......
99999 | 18FF0917 | [1m[31mFF[0m [1m[31m03[0m [1m[31mFF[0m [1m[31mFF[0m [1m[31mFF[0m [1m[31mFF[0m [1m[31mFF[0m [1m[31mFF[0m ........
99999 | 18FF1317 | [1m[31mFF[0m [1m[31mFF[0m [1m[31mFF[0m [1m[31mFF[0m [1m[31mFF[0m [1m[31mFF[0m [1m[31mFF[0m [1m[31mFF[0m ........
99999 | 18FF1517 | [1m[31mFF[0m [1m[31mFF[0m [1m[31mFF[0m [1m[31mFF[0m [1m[31mFF[0m [1m[31mFF[0m [1m[31mFF[0m [1m[31mFF[0m ........
99999 | 18FF7400 | 00 00 FF FF FF FF FF FF ........
00469 | 18FF8000 | FD 0B 04 0F 04 21 00 03 .....!..
99999 | 18FF800B | FD 13 84 0F E8 FF FF 03 ........
99999 | 18FF8013 | FD 17 04 0F 04 00 00 03 ........
99999 | 18FF8017 | FD 25 04 0F 4C B8 09 03 .%..L...
00470 | 18FF8025 | FD 00 84 0F 20 00 FF 03 .... ...
99999 | 18FFAD01 | [1m[31mFF[0m [1m[31mFF[0m [1m[31mFF[0m [1m[31mFF[0m [1m[31mFF[0m [1m[31mFF[0m [1m[31mFF[0m [1m[31mFF[0m ........
99999 | 18FFC025 | [1m[31m43[0m [1m[31m0C[0m [1m[31mFF[0m [1m[31m40[0m [1m[31m50[0m [1m[31mF0[0m [1m[31mFF[0m [1m[31mFF[0m [1m[31mC[0m..[1m[31m@[0m[1m[31mP[0m...
99999 | 18FFC125 | [1m[31mFF[0m [1m[31mFC[0m [1m[31m5A[0m [1m[31m33[0m [1m[31m01[0m 00 00 00 ..[1m[31mZ[0m[1m[31m3[0m....
99999 | 18FFC225 | 00 [1m[31m10[0m [1m[31mA0[0m [1m[31m01[0m [1m[31mC6[0m [1m[31m01[0m [1m[31m57[0m 00 ......[1m[31mW[0m.
99999 | 18FFC325 | [1m[31m25[0m [1m[31m41[0m [1m[31mF3[0m [1m[31m50[0m [1m[31mC0[0m 00 [1m[31m41[0m [1m[31mC0[0m [1m[31m%[0m[1m[31mA[0m.[1m[31mP[0m..[1m[31mA[0m.
99999 | 18FFC425 | [1m[31m13[0m [1m[31mD4[0m [1m[31m13[0m [1m[31mD4[0m [1m[31mF0[0m [1m[31mFF[0m [1m[31mF0[0m [1m[31mFF[0m ........
99999 | 18FFC525 | [1m[31m01[0m [1m[31m05[0m [1m[31m15[0m [1m[31m14[0m [1m[31m01[0m [1m[31m44[0m 00 [1m[31m01[0m .....[1m[31mD[0m..
99999 | 18FFC625 | [1m[31m10[0m 00 00 00 00 00 [1m[31m20[0m [1m[31m17[0m ......[1m[31m [0m.
99999 | 18FFC725 | [1m[31m43[0m 00 [1m[31mFC[0m [1m[31mFF[0m [1m[31mFF[0m [1m[31mFF[0m [1m[31mFF[0m [1m[31mFF[0m [1m[31mC[0m.......
99999 | 18FFC925 | 00 00 00 00 00 00 [1m[31mF0[0m [1m[31mFF[0m ........
99999 | 18FFCA25 | [1m[31m01[0m [1m[31m46[0m [1m[31m5F[0m [1m[31m5F[0m [1m[31mAC[0m [1m[31m0D[0m [1m[31m64[0m [1m[31m19[0m .[1m[31mF[0m[1m[31m_[0m[1m[31m_[0m..[1m[31md[0m.
00059 | 1CEBFF00 | 04 03 FF FF FF FF FF FF ........
99999 | 1CECFF00 | 20 16 00 04 FF CA FE 00  .......
[H04
[B00019 | 08F0090B | [1m[31m90[0m 7D 20 71 7D [1m[31m80[0m 7D FF .} q}.}.
00009 | 08F01D13 | [1m[31m90[0m 7D 20 FF 10 8A F5 [1m[31m98[0m .} .....
[B00010 | 08FF000B | 00 00 FF FA 0C FF [1m[31mDF[0m [1m[31m92[0m ........
[B[B00020 | 0CFF000B | FF FF FF FF 00 FF [1m[31mE0[0m [1m[31m23[0m .......[1m[31m#[0m
00019 | 0CFF0200 | 00 01 FF FF FF 00 [1m[31m91[0m [1m[31m61[0m .......[1m[31ma[0m
[B[B[B[B[B[B[B[B[B[B00050 | 10FF010B | [1m[31m70[0m [1m[31m5B[0m 71 7D 71 7D 32 6B [1m[31mp[0m[1m[31m[[0mq}q}2k
[B[B[B[B[B[B[B[B[B[B[B[B[B[B[B[B00100 | 14FF000B | FC 5F C1 C1 C1 FF [1m[31m6F[0m [1m[31mEF[0m ._....[1m[31mo[0m.
[B[B[B[B[B[B[B[B[B[B[B[B[B[B[B[B[B[B[B[B[B[B[B[B[B[B[B[B[B[B[B[B[B[B[B[B[B[B[B[B[B[B[B00099 | 18FF0400 | 03 C3 3F 03 CF 0D [1m[31m1F[0m [1m[31m25[0m ..?....[1m[31m%[0m
[B[B[B[B[B[B[B[B[B[B[B[B00469 | 18FF800B | FD 13 84 0F E8 FF FF 03 ........
00470 | 18FF8013 | FD 17 04 0F 04 00 00 03 ........
[B[B[B[B[B[B[B[B[B[B[B[B[B[B[B[2J[HXX|ms | -- ID -- | data ...     < can0 # l=20 h=100 t=500 slots=111 >[H05
00006 | 08F00200 | FF FF FF FF FF FF FF FF ........
00019 | 08F0090B | [1m[31m90[0m 7D 20 71 7D [1m[31m6B[0m 7D FF .} q}[1m[31mk[0m}.
00010 | 08F01D13 | [1m[31m8F[0m 7D 20 FF 10 8A F5 [1m[31mCC[0m .} .....
00010 | 08FE6E0B | FF FE FF FE FF FE FF FE ........
00010 | 08FF000B | 00 00 FF FA 0C FF [1m[31m1F[0m [1m[31m51[0m .......[1m[31mQ[0m
00020 | 0CF00400 | 50 7D 84 FF FF 00 F6 7D P}.....}
00020 | 0CFE6C17 | FF FF FF FF 00 FE 00 FE ........
00019 | 0CFF000B | FF FF FF FF 00 FF [1m[31m80[0m [1m[31m8F[0m ........
00019 | 0CFF0200 | 00 01 FF FF FF 00 [1m[31m31[0m [1m[31m0E[0m ......[1m[31m1[0m.
00020 | 0CFF0300 | 7D FF FF FF FF FF FF FF }.......
00019 | 0CFF0500 | FF FF FF FF FF FF FF FF ........
00050 | 1001000B | FF FF FF FF FF FF FF FF ........
00050 | 10EBFF25 | 02 FC FF 39 C8 FF FF 26 ...9...&
99999 | 10ECFF25 | 20 0E 00 02 FF CA FE 00  .......
00050 | 10F00300 | DD 00 FF FF FF FC FF FF ........
99999 | 10FECA13 | 00 00 00 F0 F3 01 FF FF ........
99999 | 10FECA17 | 00 [1m[31mFF[0m [1m[31m54[0m 00 [1m[31m05[0m [1m[31m4B[0m [1m[31mFF[0m [1m[31mFF[0m ..[1m[31mT[0m..[1m[31mK[0m..
99999 | 10FECA98 | 00 FF FE 2B 9F 01 FF FF ...+....
00049 | 10FF0000 | FC A8 61 FC F3 28 F3 FC ..a..(..
00049 | 10FF0100 | FF FF FF FF FF FF 06 FC ........
00050 | 10FF010B | [1m[31m1E[0m [1m[31m5F[0m 71 7D 71 7D 32 6B .[1m[31m_[0mq}q}2k
00049 | 10FF0117 | F0 FA F0 FF FF FF FF FF ........
00100 | 14D0FF17 | FF FF FF FF FF FF FF FF ........
00099 | 14F00000 | FF 7D 7D FF FF FF FF 7D .}}....}
00100 | 14F0010B | 0F 00 FF FF FF 1C FF FF ........
00100 | 14F00500 | FF FF FF FF FF FF FF FF ........
00099 | 14FDC40B | FF 0B 5F FF FF FF FF FF .._.....
00099 | 14FE4F0B | FF FF FF FF FF FF FF FF ........
00100 | 14FE5A2F | FF FF FF FF FF FF FF FF ........
00100 | 14FE6F0B | FF FF FF FF FF FF FF FF ........
00099 | 14FEAE17 | FF FF FF FF FF FF FF FF ........
00100 | 14FEBF0B | FF FE FE FE FE FE FF FF ........
00100 | 14FEDF00 | 85 FF FF FF FF FF FF FF ........
00099 | 14FEF100 | FF FF FE CC FF FF 1F FF ........
00100 | 14FEF200 | FF FF 00 00 00 00 FF FF ........
00100 | 14FEF217 | FF FF FF FF FF FF FF FF ........
00099 | 14FF0000 | FF FF FF 00 30 FF FF FF ....0...
00100 | 14FF000B | FC 5F C1 C1 C1 FF [1m[31m8F[0m [1m[31m48[0m ._.....[1m[31mH[0m
00099 | 14FF0017 | 40 00 00 03 03 10 00 0C @.......
00100 | 14FF0053 | FF FF FF FF FF FF FF FF ........
00100 | 14FF010B | FF 00 3F FF F0 FF 7F FF ..?.....
00099 | 14FF0117 | 00 00 F0 FF FC FF 00 00 ........
00100 | 14FF020B | 7D 7D 7D 7D 80 80 FF FF }}}}....
00100 | 14FF0217 | FF FF FF FF FF FF FF FF ........
00100 | 14FF0600 | FF 80 7F FF FF FF FF FF ........
00100 | 14FF0700 | FF FF FF FF FF FF FF FF ........
00099 | 14FF0900 | FF FF FF FF FF FF FF FF ........
00099 | 14FF0A00 | FF FF FF 00 00 FF FF BF ........
00100 | 14FF0D00 | 04 FF FB 07 00 3C 3F 3C .....<?<
00099 | 14FF0E00 | FF FF FF FF FF FF 00 FB ........
00099 | 14FF1017 | FF FF 00 00 FF FD FF FF ........
00100 | 14FF1100 | 3F F7 FF 00 7F 13 08 FD ?.......
99999 | 14FF1200 | FF FF 0D 0D 3C 00 EA FF ....<...
00100 | 14FF1600 | FF FF FF FF FF FF FF FF ........
99999 | 18DEEE17 | F0 FF FF FF FF FF FF FF ........
00100 | 18F00100 | FF FF FF FF 00 FF FF FF ........
99999 | 18FD0517 | 7F FF FF FF FF FF FF FF ........
99999 | 18FD0900 | 00 00 00 00 00 00 00 00 ........
99999 | 18FD0917 | FF FF FF FF FF FF FF FF ........
99999 | 18FD7C00 | FF FF D3 30 FD FF FF FF ...0....
99999 | 18FD7D17 | FF FF FF FF FF FF FF FF ........
99999 | 18FD9500 | FF FF FF FF FF FF FF FF ........
99999 | 18FE700B | FF FF FF FF FF FF FF FF ........
99999 | 18FEC100 | 00 00 00 00 00 00 00 00 ........
