Script started on 2025-05-12 16:18:11-06:00 [COMMAND="bash -c './core-testing && pytest ./core/'" TERM="xterm-256color" TTY="/dev/pts/1" COLUMNS="67" LINES="29"]
Please ensure you are running this script on the post-production UTHP hardware (eMMC).
Also ensure the J1939 and J1708 buses are powered.
Are you connected to the Cascadia CAN bus and the Brake Board? (y/n) y
Setting up the environment for testing the core uthp tests...
=====================================================
Unique identifiers for UTHP-R1-0042:
mmcblk1      
|-mmcblk1p1  A17E-1425
`-mmcblk1p2  dcc933cf-947e-4fd5-9d2b-fc28746b28d3
mmcblk1boot0 
mmcblk1boot1 
Setting up the CAN interface...
Setting up the Brake Board...
Environment setup should be complete... waiting for user to confirm hardware is ready.
Press any key to continue...
Starting the core uthp tests...
[1m======================= test session starts =======================[0m
platform linux -- Python 3.12.9, pytest-8.0.2, pluggy-1.4.0
rootdir: /home/uthp/uthp-tests/core
configfile: pytest.ini
plugins: anyio-3.6.1
[1mcollecting ... [0m[1mcollecting 9 items                                                [0m[1mcollecting 19 items                                               [0m[1mcollecting 25 items                                               [0m[1mcollecting 34 items                                               [0m[1mcollected 40 items                                                [0m

core/test_can-utils.py candump output:
   can0  0CF00400   [8]  50 7D 84 FF FF 00 F6 7D
  can0  0CF00400   [8]  50 7D 84 FF FF 00 F6 7D
  can0  0CF00400   [8]  50 7D 84 FF FF 00 F6 7D
  can0  18FEDF00   [8]  85 FF FF FF FF FF FF FF
  can0  1892FE00   [8]  FF FF FF FF FF FF FF FF
  can0  18F0000F   [8]  DF 7D 7D FF 0F FF FF 7D
  can0  18F00100   [8]  FF FF FF FF 00 FF FF FF
  can0  18FEE000   [8]  00 00 00 00 00 00 00 00
  can0  18FEF100   [8]  FF FF FE FC FF FF 00 FF
  can0  18FEF200   [8]  FF FF 00 00 00 00 FF FF
  can0  18FEEF00   [8]  FF FF FF FF FF FF FF FE
  can0  0CF00300   [8]  DD 00 FF FF FF FC FF FF
  can0  0CF00400   [8]  50 7D 84 FF FF 00 F6 7D
  can0  0CF00400   [8]  50 7D 84 FF FF 00 F6 7D
  can0  0CF00400   [8]  50 7D 84 FF FF 00 F6 7D
  can0  0CF00400   [8]  50 7D 84 FF FF 00 F6 7D
  can0  0CF00400   [8]  50 7D 84 FF FF 00 F6 7D
  can0  18FEDF00   [8]  85 FF FF FF FF FF FF FF
  can0  0CF00300   [8]  DD 00 FF FF FF FC FF FF
  can0  0CF00400   [8]  50 7D 84 FF FF 00 F6 7D
  can0  0CF00400   [8]  50 7D 84 FF FF 00 F6 7D
  can0  0CF00400   [8]  50 7D 84 FF FF 00 F6 7D
  can0  0CF00400   [8]  50 7D 84 FF FF 00 F6 7D
  can0  0CF00400   [8]  50 7D 84 FF FF 00 F6 7D
  can0  18FEDF00   [8]  85 FF FF FF FF FF FF FF
  can0  1892FE00   [8]  FF FF FF FF FF FF FF FF
  can0  18F0000F   [8]  DF 7D 7D FF 0F FF FF 7D
  can0  18F00100   [8]  FF FF FF FF 00 FF FF FF
  can0  18FEE000   [8]  00 00 00 00 00 00 00 00
  can0  18FEF100   [8]  FF FF FE FC FF FF 00 FF
  can0  18FEF200   [8]  FF FF 00 00 00 00 FF FF
  can0  0CF00300   [8]  DD 00 FF FF FF FC FF FF
  can0  0CF00400   [8]  50 7D 84 FF FF 00 F6 7D
  can0  0CF00400   [8]  50 7D 84 FF FF 00 F6 7D
  can0  0CF00400   [8]  50 7D 84 FF FF 00 F6 7D
  can0  0CF00400   [8]  50 7D 84 FF FF 00 F6 7D
  can0  0CF00400   [8]  50 7D 84 FF FF 00 F6 7D
  can0  18FEDF00   [8]  85 FF FF FF FF FF FF FF
  can0  0CF00300   [8]  DD 00 FF FF FF FC FF FF
  can0  0CF00400   [8]  50 7D 84 FF FF 00 F6 7D
  can0  0CF00400   [8]  50 7D 84 FF FF 00 F6 7D
  can0  0CF00400   [8]  50 7D 84 FF FF 00 F6 7D
  can0  0CF00400   [8]  50 7D 84 FF FF 00 F6 7D
  can0  0CF00400   [8]  50 7D 84 FF FF 00 F6 7D
  can0  18FEDF00   [8]  85 FF FF FF FF FF FF FF
  can0  1892FE00   [8]  FF FF FF FF FF FF FF FF
  can0  18F0000F   [8]  DF 7D 7D FF 0F FF FF 7D
  can0  18F00100   [8]  FF FF FF FF 00 FF FF FF
  can0  18FEE000   [8]  00 00 00 00 00 00 00 00
  can0  18FEF100   [8]  FF FF FE FC FF FF 00 FF
  can0  18FEF200   [8]  FF FF 00 00 00 00 FF FF
  can0  0CF00300   [8]  DD 00 FF FF FF FC FF FF
  can0  0CF00400   [8]  50 7D 84 FF FF 00 F6 7D
  can0  0CF00400   [8]  50 7D 84 FF FF 00 F6 7D
  can0  0CF00400   [8]  50 7D 84 FF FF 00 F6 7D
  can0  0CF00400   [8]  50 7D 84 FF FF 00 F6 7D
  can0  0CF00400   [8]  50 7D 84 FF FF 00 F6 7D
  can0  18FEDF00   [8]  85 FF FF FF FF FF FF FF
  can0  0CF00300   [8]  DD 00 FF FF FF FC FF FF
  can0  0CF00400   [8]  50 7D 84 FF FF 00 F6 7D
  can0  0CF00400   [8]  50 7D 84 FF FF 00 F6 7D
  can0  0CF00400   [8]  50 7D 84 FF FF 00 F6 7D
  can0  0CF00400   [8]  50 7D 84 FF FF 00 F6 7D
  can0  0CF00400   [8]  50 7D 84 FF FF 00 F6 7D
  can0  18FEDF00   [8]  85 FF FF FF FF FF FF FF
  can0  1892FE00   [8]  FF FF FF FF FF FF FF FF
  can0  18F0000F   [8]  DF 7D 7D FF 0F FF FF 7D
  can0  18F00100   [8]  FF FF FF FF 00 FF FF FF
  can0  18FEE000   [8]  00 00 00 00 00 00 00 00
  can0  18FEF100   [8]  FF FF FE FC FF FF 00 FF
  can0  18FEF200   [8]  FF FF 00 00 00 00 FF FF
  can0  0CF00300   [8]  DD 00 FF FF FF FC FF FF
  can0  0CF00400   [8]  50 7D 84 FF FF 00 F6 7D
  can0  0CF00400   [8]  50 7D 84 FF FF 00 F6 7D
  can0  0CF00400   [8]  50 7D 84 FF FF 00 F6 7D
  can0  1CECFF00   [8]  20 16 00 04 FF CA FE 00
  can0  0CF00400   [8]  50 7D 84 FF FF 00 F6 7D
  can0  0CF00400   [8]  50 7D 84 FF FF 00 F6 7D
  can0  18FEDF00   [8]  85 FF FF FF FF FF FF FF
  can0  0CF00300   [8]  DD 00 FF FF FF FC FF FF
  can0  0CF00400   [8]  50 7D 84 FF FF 00 F6 7D
  can0  0CF00400   [8]  50 7D 84 FF FF 00 F6 7D
  can0  0CF00400   [8]  50 7D 84 FF FF 00 F6 7D
  can0  0CF00400   [8]  50 7D 84 FF FF 00 F6 7D
  can0  1CEBFF00   [8]  01 47 FF CB 05 02 3C CB
  can0  0CF00400   [8]  50 7D 84 FF FF 00 F6 7D
  can0  18FEDF00   [8]  85 FF FF FF FF FF FF FF
  can0  1892FE00   [8]  FF FF FF FF FF FF FF FF
  can0  18F0000F   [8]  DF 7D 7D FF 0F FF FF 7D
  can0  18F00100   [8]  FF FF FF FF 00 FF FF FF
  can0  18FEE000   [8]  00 00 00 00 00 00 00 00
  can0  18FEF100   [8]  FF FF FE FC FF FF 00 FF
  can0  18FEF200   [8]  FF FF 00 00 00 00 FF FF
  can0  0CF00300   [8]  DD 00 FF FF FF FC FF FF
  can0  0CF00400   [8]  50 7D 84 FF FF 00 F6 7D
  can0  0CF00400   [8]  50 7D 84 FF FF 00 F6 7D
  can0  0CF00400   [8]  50 7D 84 FF FF 00 F6 7D
  can0  0CF00400   [8]  50 7D 84 FF FF 00 F6 7D
  can0  0CF00400   [8]  50 7D 84 FF FF 00 F6 7D
  can0  1CEBFF00   [8]  02 05 0C 46 A8 00 02 05
  can0  18FEDF00   [8]  85 FF FF FF FF FF FF FF
  can0  0CF00300   [8]  DD 00 FF FF FF FC FF FF
  can0  0CF00400   [8]  50 7D 84 FF FF 00 F6 7D
  can0  18FD0900   [8]  00 00 00 00 00 00 00 00
  can0  18FD7C00   [8]  FF FF D3 30 FD FF FF FF
  can0  18FCDC00   [8]  FF FF FF FF FF FF FF FF
  can0  0CF00400   [8]  50 7D 84 FF FF 00 F6 7D
  can0  0CF00400   [8]  50 7D 84 FF FF 00 F6 7D
  can0  0CF00400   [8]  50 7D 84 FF FF 00 F6 7D
  can0  0CF00400   [8]  50 7D 84 FF FF 00 F6 7D
  can0  18FEDF00   [8]  85 FF FF FF FF FF FF FF
  can0  1892FE00   [8]  FF FF FF FF FF FF FF FF
  can0  18F0000F   [8]  DF 7D 7D FF 0F FF FF 7D
  can0  18F00100   [8]  FF FF FF FF 00 FF FF FF
  can0  18FEE000   [8]  00 00 00 00 00 00 00 00
  can0  18FEF100   [8]  FF FF FE FC FF FF 00 FF
  can0  18FEF200   [8]  FF FF 00 00 00 00 FF FF
  can0  18FEEF00   [8]  FF FF FF FF FF FF FF FE
  can0  18FD0900   [8]  00 00 00 00 00 00 00 00
  can0  18FDE000   [8]  FF FF FF FF FF FF FF FF
  can0  18FEC100   [8]  00 00 00 00 00 00 00 00
  can0  18FEE400   [8]  FF 7F FF FF FF FF FF FF
  can0  18FEF500   [8]  FF FF FF 3E 25 FF FF FF
  can0  18FEF700   [8]  FF FF FF FF 1E 01 FF FF
  can0  18FF7400   [8]  00 00 FF FF FF FF FF FF
  can0  0CF00300   [8]  DD 00 FF FF FF FC FF FF
  can0  0CF00400   [8]  50 7D 84 FF FF 00 F6 7D
  can0  1CEBFF00   [8]  03 6F 00 04 03 1E F0 EC
  can0  0CF00400   [8]  50 7D 84 FF FF 00 F6 7D
  can0  0CF00400   [8]  50 7D 84 FF FF 00 F6 7D
  can0  0CF00400   [8]  50 7D 84 FF FF 00 F6 7D
  can0  0CF00400   [8]  50 7D 84 FF FF 00 F6 7D
  can0  18FEDF00   [8]  85 FF FF FF FF FF FF FF
  can0  0CF00300   [8]  DD 00 FF FF FF FC FF FF
  can0  0CF00400   [8]  50 7D 84 FF FF 00 F6 7D
  can0  0CF00400   [8]  50 7D 84 FF FF 00 F6 7D
  can0  1CEBFF00   [8]  04 05 FF FF FF FF FF FF
  can0  0CF00400   [8]  50 7D 84 FF FF 00 F6 7D
  can0  0CF00400   [8]  50 7D 84 FF FF 00 F6 7D
  can0  0CF00400   [8]  50 7D 84 FF FF 00 F6 7D
  can0  18FEDF00   [8]  85 FF FF FF FF FF FF FF
  can0  1892FE00   [8]  FF FF FF FF FF FF FF FF
  can0  18F0000F   [8]  DF 7D 7D FF 0F FF FF 7D
  can0  18F00100   [8]  FF FF FF FF 00 FF FF FF
  can0  18FEE000   [8]  00 00 00 00 00 00 00 00
  can0  18FEF100   [8]  FF FF FE FC FF FF 00 FF
  can0  18FEF200   [8]  FF FF 00 00 00 00 FF FF
  can0  0CF00300   [8]  DD 00 FF FF FF FC FF FF
  can0  0CF00400   [8]  50 7D 84 FF FF 00 F6 7D
  can0  0CF00400   [8]  50 7D 84 FF FF 00 F6 7D
  can0  0CF00400   [8]  50 7D 84 FF FF 00 F6 7D
  can0  0CF00400   [8]  50 7D 84 FF FF 00 F6 7D
  can0  0CF00400   [8]  50 7D 84 FF FF 00 F6 7D
  can0  18FEDF00   [8]  85 FF FF FF FF FF FF FF
  can0  0CF00300   [8]  DD 00 FF FF FF FC FF FF
  can0  0CF00400   [8]  50 7D 84 FF FF 00 F6 7D
  can0  0CF00400   [8]  50 7D 84 FF FF 00 F6 7D
  can0  0CF00400   [8]  50 7D 84 FF FF 00 F6 7D
  can0  0CF00400   [8]  50 7D 84 FF FF 00 F6 7D
  can0  0CF00400   [8]  50 7D 84 FF FF 00 F6 7D
  can0  18FEDF00   [8]  85 FF FF FF FF FF FF FF
  can0  1892FE00   [8]  FF FF FF FF FF FF FF FF
  can0  18F0000F   [8]  DF 7D 7D FF 0F FF FF 7D
  can0  18F00100   [8]  FF FF FF FF 00 FF FF FF
  can0  18FEE000   [8]  00 00 00 00 00 00 00 00
  can0  18FEF100   [8]  FF FF FE FC FF FF 00 FF
  can0  18FEF200   [8]  FF FF 00 00 00 00 FF FF
  can0  0CF00300   [8]  DD 00 FF FF FF FC FF FF
  can0  0CF00400   [8]  50 7D 84 FF FF 00 F6 7D
  can0  0CF00400   [8]  50 7D 84 FF FF 00 F6 7D
  can0  0CF00400   [8]  50 7D 84 FF FF 00 F6 7D
  can0  0CF00400   [8]  50 7D 84 FF FF 00 F6 7D
  can0  0CF00400   [8]  50 7D 84 FF FF 00 F6 7D
  can0  18FEDF00   [8]  85 FF FF FF FF FF FF FF
  can0  0CF00300   [8]  DD 00 FF FF FF FC FF FF
  can0  0CF00400   [8]  50 7D 84 FF FF 00 F6 7D
  can0  0CF00400   [8]  50 7D 84 FF FF 00 F6 7D
  can0  0CF00400   [8]  50 7D 84 FF FF 00 F6 7D
  can0  0CF00400   [8]  50 7D 84 FF FF 00 F6 7D
  can0  0CF00400   [8]  50 7D 84 FF FF 00 F6 7D
  can0  18FEDF00   [8]  85 FF FF FF FF FF FF FF
  can0  1892FE00   [8]  FF FF FF FF FF FF FF FF
  can0  18F0000F   [8]  DF 7D 7D FF 0F FF FF 7D
  can0  18F00100   [8]  FF FF FF FF 00 FF FF FF
  can0  18FEE000   [8]  00 00 00 00 00 00 00 00
  can0  18FEF100   [8]  FF FF FE FC FF FF 00 FF
  can0  18FEF200   [8]  FF FF 00 00 00 00 FF FF
  can0  0CF00300   [8]  DD 00 FF FF FF FC FF FF
  can0  0CF00400   [8]  50 7D 84 FF FF 00 F6 7D
  can0  0CF00400   [8]  50 7D 84 FF FF 00 F6 7D
  can0  0CF00400   [8]  50 7D 84 FF FF 00 F6 7D
  can0  0CF00400   [8]  50 7D 84 FF FF 00 F6 7D
  can0  0CF00400   [8]  50 7D 84 FF FF 00 F6 7D
  can0  18FEDF00   [8]  85 FF FF FF FF FF FF FF
  can0  0CF00300   [8]  DD 00 FF FF FF FC FF FF
  can0  0CF00400   [8]  50 7D 84 FF FF 00 F6 7D
  can0  0CF00400   [8]  50 7D 84 FF FF 00 F6 7D
  can0  0CF00400   [8]  50 7D 84 FF FF 00 F6 7D
  can0  0CF00400   [8]  50 7D 84 FF FF 00 F6 7D
  can0  0CF00400   [8]  50 7D 84 FF FF 00 F6 7D
  can0  18FEDF00   [8]  85 FF FF FF FF FF FF FF
  can0  1892FE00   [8]  FF FF FF FF FF FF FF FF
  can0  18F0000F   [8]  DF 7D 7D FF 0F FF FF 7D
  can0  18F00100   [8]  FF FF FF FF 00 FF FF FF
  can0  18FEE000   [8]  00 00 00 00 00 00 00 00
  can0  18FEF100   [8]  FF FF FE FC FF FF 00 FF
  can0  18FEF200   [8]  FF FF 00 00 00 00 FF FF
  can0  0CF00300   [8]  DD 00 FF FF FF FC FF FF
  can0  0CF00400   [8]  50 7D 84 FF FF 00 F6 7D
  can0  0CF00400   [8]  50 7D 84 FF FF 00 F6 7D
  can0  0CF00400   [8]  50 7D 84 FF FF 00 F6 7D
  can0  0CF00400   [8]  50 7D 84 FF FF 00 F6 7D
  can0  0CF00400   [8]  50 7D 84 FF FF 00 F6 7D
  can0  18FEDF00   [8]  85 FF FF FF FF FF FF FF
  can0  0CF00300   [8]  DD 00 FF FF FF FC FF FF
  can0  0CF00400   [8]  50 7D 84 FF FF 00 F6 7D
  can0  0CF00400   [8]  50 7D 84 FF FF 00 F6 7D
  can0  0CF00400   [8]  50 7D 84 FF FF 00 F6 7D
  can0  0CF00400   [8]  50 7D 84 FF FF 00 F6 7D
  can0  0CF00400   [8]  50 7D 84 FF FF 00 F6 7D
  can0  18FEDF00   [8]  85 FF FF FF FF FF FF FF
  can0  1892FE00   [8]  FF FF FF FF FF FF FF FF
  can0  18F0000F   [8]  DF 7D 7D FF 0F FF FF 7D
  can0  18F00100   [8]  FF FF FF FF 00 FF FF FF
  can0  18FEE000   [8]  00 00 00 00 00 00 00 00
  can0  18FEF100   [8]  FF FF FE FC FF FF 00 FF
  can0  18FEF200   [8]  FF FF 00 00 00 00 FF FF
  can0  18FEEF00   [8]  FF FF FF FF FF FF FF FE
  can0  0CF00300   [8]  DD 00 FF FF FF FC FF FF
  can0  0CF00400   [8]  50 7D 84 FF FF 00 F6 7D
  can0  0CF00400   [8]  50 7D 84 FF FF 00 F6 7D
  can0  0CF00400   [8]  50 7D 84 FF FF 00 F6 7D
  can0  0CF00400   [8]  50 7D 84 FF FF 00 F6 7D
  can0  0CF00400   [8]  50 7D 84 FF FF 00 F6 7D
  can0  18FEDF00   [8]  85 FF FF FF FF FF FF FF
  can0  0CF00300   [8]  DD 00 FF FF FF FC FF FF
  can0  0CF00400   [8]  50 7D 84 FF FF 00 F6 7D
  can0  0CF00400   [8]  50 7D 84 FF FF 00 F6 7D
  can0  0CF00400   [8]  50 7D 84 FF FF 00 F6 7D
  can0  0CF00400   [8]  50 7D 84 FF FF 00 F6 7D
  can0  0CF00400   [8]  50 7D 84 FF FF 00 F6 7D
  can0  18FEDF00   [8]  85 FF FF FF FF FF FF FF
  can0  1892FE00   [8]  FF FF FF FF FF FF FF FF
  can0  18F0000F   [8]  DF 7D 7D FF 0F FF FF 7D
  can0  18F00100   [8]  FF FF FF FF 00 FF FF FF
  can0  18FEE000   [8]  00 00 00 00 00 00 00 00
  can0  18FEF100   [8]  FF FF FE FC FF FF 00 FF
  can0  18FEF200   [8]  FF FF 00 00 00 00 FF FF
  can0  0CF00300   [8]  DD 00 FF FF FF FC FF FF
  can0  0CF00400   [8]  50 7D 84 FF FF 00 F6 7D
  can0  0CF00400   [8]  50 7D 84 FF FF 00 F6 7D
  can0  0CF00400   [8]  50 7D 84 FF FF 00 F6 7D
  can0  0CF00400   [8]  50 7D 84 FF FF 00 F6 7D
  can0  0CF00400   [8]  50 7D 84 FF FF 00 F6 7D
  can0  18FEDF00   [8]  85 FF FF FF FF FF FF FF
  can0  0CF00300   [8]  DD 00 FF FF FF FC FF FF
  can0  0CF00400   [8]  50 7D 84 FF FF 00 F6 7D
  can0  0CF00400   [8]  50 7D 84 FF FF 00 F6 7D
  can0  0CF00400   [8]  50 7D 84 FF FF 00 F6 7D
  can0  0CF00400   [8]  50 7D 84 FF FF 00 F6 7D
  can0  0CF00400   [8]  50 7D 84 FF FF 00 F6 7D
  can0  18FEDF00   [8]  85 FF FF FF FF FF FF FF
  can0  1892FE00   [8]  FF FF FF FF FF FF FF FF
  can0  18F0000F   [8]  DF 7D 7D FF 0F FF FF 7D
  can0  18F00100   [8]  FF FF FF FF 00 FF FF FF
  can0  18FEE000   [8]  00 00 00 00 00 00 00 00
  can0  18FEF100   [8]  FF FF FE FC FF FF 00 FF
  can0  18FEF200   [8]  FF FF 00 00 00 00 FF FF
  can0  0CF00300   [8]  DD 00 FF FF FF FC FF FF
  can0  0CF00400   [8]  50 7D 84 FF FF 00 F6 7D
  can0  0CF00400   [8]  50 7D 84 FF FF 00 F6 7D
  can0  0CF00400   [8]  50 7D 84 FF FF 00 F6 7D
  can0  0CF00400   [8]  50 7D 84 FF FF 00 F6 7D
  can0  0CF00400   [8]  50 7D 84 FF FF 00 F6 7D
  can0  18FEDF00   [8]  85 FF FF FF FF FF FF FF
  can0  0CF00300   [8]  DD 00 FF FF FF FC FF FF
  can0  0CF00400   [8]  50 7D 84 FF FF 00 F6 7D
  can0  0CF00400   [8]  50 7D 84 FF FF 00 F6 7D
  can0  0CF00400   [8]  50 7D 84 FF FF 00 F6 7D
  can0  0CF00400   [8]  50 7D 84 FF FF 00 F6 7D
  can0  0CF00400   [8]  50 7D 84 FF FF 00 F6 7D
  can0  18FEDF00   [8]  85 FF FF FF FF FF FF FF
  can0  1892FE00   [8]  FF FF FF FF FF FF FF FF
  can0  18F0000F   [8]  DF 7D 7D FF 0F FF FF 7D
  can0  18F00100   [8]  FF FF FF FF 00 FF FF FF
  can0  18FEE000   [8]  00 00 00 00 00 00 00 00
  can0  18FEF100   [8]  FF FF FE FC FF FF 00 FF
  can0  18FEF200   [8]  FF FF 00 00 00 00 FF FF
  can0  0CF00300   [8]  DD 00 FF FF FF FC FF FF
  can0  0CF00400   [8]  50 7D 84 FF FF 00 F6 7D
  can0  0CF00400   [8]  50 7D 84 FF FF 00 F6 7D
  can0  0CF00400   [8]  50 7D 84 FF FF 00 F6 7D
  can0  1CECFF00   [8]  20 16 00 04 FF CA FE 00
  can0  0CF00400   [8]  50 7D 84 FF FF 00 F6 7D
  can0  0CF00400   [8]  50 7D 84 FF FF 00 F6 7D
  can0  18FEDF00   [8]  85 FF FF FF FF FF FF FF
  can0  0CF00300   [8]  DD 00 FF FF FF FC FF FF
  can0  0CF00400   [8]  50 7D 84 FF FF 00 F6 7D
  can0  0CF00400   [8]  50 7D 84 FF FF 00 F6 7D
  can0  0CF00400   [8]  50 7D 84 FF FF 00 F6 7D
  can0  0CF00400   [8]  50 7D 84 FF FF 00 F6 7D
  can0  1CEBFF00   [8]  01 47 FF CB 05 02 3C CB
  can0  0CF00400   [8]  50 7D 84 FF FF 00 F6 7D
  can0  18FEDF00   [8]  85 FF FF FF FF FF FF FF
  can0  1892FE00   [8]  FF FF FF FF FF FF FF FF
  can0  18F0000F   [8]  DF 7D 7D FF 0F FF FF 7D
  can0  18F00100   [8]  FF FF FF FF 00 FF FF FF
  can0  18FEE000   [8]  00 00 00 00 00 00 00 00
  can0  18FEF100   [8]  FF FF FE FC FF FF 00 FF
  can0  18FEF200   [8]  FF FF 00 00 00 00 FF FF
  can0  0CF00300   [8]  DD 00 FF FF FF FC FF FF
  can0  0CF00400   [8]  50 7D 84 FF FF 00 F6 7D
  can0  0CF00400   [8]  50 7D 84 FF FF 00 F6 7D
  can0  0CF00400   [8]  50 7D 84 FF FF 00 F6 7D
  can0  0CF00400   [8]  50 7D 84 FF FF 00 F6 7D
  can0  0CF00400   [8]  50 7D 84 FF FF 00 F6 7D
  can0  1CEBFF00   [8]  02 05 0C 46 A8 00 02 05
  can0  18FEDF00   [8]  85 FF FF FF FF FF FF FF
  can0  0CF00300   [8]  DD 00 FF FF FF FC FF FF
  can0  0CF00400   [8]  50 7D 84 FF FF 00 F6 7D
  can0  18FD0900   [8]  00 00 00 00 00 00 00 00
  can0  18FD7C00   [8]  FF FF D3 30 FD FF FF FF
  can0  18FCDC00   [8]  FF FF FF FF FF FF FF FF
  can0  0CF00400   [8]  50 7D 84 FF FF 00 F6 7D
  can0  0CF00400   [8]  50 7D 84 FF FF 00 F6 7D
  can0  0CF00400   [8]  50 7D 84 FF FF 00 F6 7D
  can0  0CF00400   [8]  50 7D 84 FF FF 00 F6 7D
  can0  18FEDF00   [8]  85 FF FF FF FF FF FF FF
  can0  1892FE00   [8]  FF FF FF FF FF FF FF FF
  can0  18F0000F   [8]  DF 7D 7D FF 0F FF FF 7D
  can0  18F00100   [8]  FF FF FF FF 00 FF FF FF
  can0  18FEE000   [8]  00 00 00 00 00 00 00 00
  can0  18FEF100   [8]  FF FF FE FC FF FF 00 FF
  can0  18FEF200   [8]  FF FF 00 00 00 00 FF FF
  can0  18FEEF00   [8]  FF FF FF FF FF FF FF FE
  can0  18FD0900   [8]  00 00 00 00 00 00 00 00
  can0  18FDE000   [8]  FF FF FF FF FF FF FF FF
  can0  18FEC100   [8]  00 00 00 00 00 00 00 00
  can0  18FEE400   [8]  FF 7F FF FF FF FF FF FF
  can0  18FEF500   [8]  FF FF FF 3E 25 FF FF FF
  can0  18FEF700   [8]  FF FF FF FF 1E 01 FF FF
  can0  18FF7400   [8]  00 00 FF FF FF FF FF FF
  can0  0CF00300   [8]  DD 00 FF FF FF FC FF FF
  can0  0CF00400   [8]  50 7D 84 FF FF 00 F6 7D
  can0  1CEBFF00   [8]  03 6F 00 04 03 1E F0 EC
  can0  0CF00400   [8]  50 7D 84 FF FF 00 F6 7D
  can0  0CF00400   [8]  50 7D 84 FF FF 00 F6 7D
  can0  0CF00400   [8]  50 7D 84 FF FF 00 F6 7D
  can0  0CF00400   [8]  50 7D 84 FF FF 00 F6 7D
  can0  18FEDF00   [8]  85 FF FF FF FF FF FF FF
  can0  0CF00300   [8]  DD 00 FF FF FF FC FF FF
  can0  0CF00400   [8]  50 7D 84 FF FF 00 F6 7D
  can0  0CF00400   [8]  50 7D 84 FF FF 00 F6 7D
  can0  1CEBFF00   [8]  04 05 FF FF FF FF FF FF
  can0  0CF00400   [8]  50 7D 84 FF FF 00 F6 7D
  can0  0CF00400   [8]  50 7D 84 FF FF 00 F6 7D
  can0  0CF00400   [8]  50 7D 84 FF FF 00 F6 7D
  can0  18FEDF00   [8]  85 FF FF FF FF FF FF FF
  can0  1892FE00   [8]  FF FF FF FF FF FF FF FF
  can0  18F0000F   [8]  DF 7D 7D FF 0F FF FF 7D
  can0  18F00100   [8]  FF FF FF FF 00 FF FF FF
  can0  18FEE000   [8]  00 00 00 00 00 00 00 00
  can0  18FEF100   [8]  FF FF FE FC FF FF 00 FF
  can0  18FEF200   [8]  FF FF 00 00 00 00 FF FF
  can0  0CF00300   [8]  DD 00 FF FF FF FC FF FF
  can0  0CF00400   [8]  50 7D 84 FF FF 00 F6 7D
  can0  0CF00400   [8]  50 7D 84 FF FF 00 F6 7D
  can0  0CF00400   [8]  50 7D 84 FF FF 00 F6 7D
  can0  0CF00400   [8]  50 7D 84 FF FF 00 F6 7D
  can0  0CF00400   [8]  50 7D 84 FF FF 00 F6 7D
  can0  18FEDF00   [8]  85 FF FF FF FF FF FF FF
  can0  0CF00300   [8]  DD 00 FF FF FF FC FF FF
  can0  0CF00400   [8]  50 7D 84 FF FF 00 F6 7D
  can0  0CF00400   [8]  50 7D 84 FF FF 00 F6 7D
  can0  0CF00400   [8]  50 7D 84 FF FF 00 F6 7D
  can0  0CF00400   [8]  50 7D 84 FF FF 00 F6 7D
  can0  0CF00400   [8]  50 7D 84 FF FF 00 F6 7D
  can0  18FEDF00   [8]  85 FF FF FF FF FF FF FF
  can0  1892FE00   [8]  FF FF FF FF FF FF FF FF
  can0  18F0000F   [8]  DF 7D 7D FF 0F FF FF 7D
  can0  18F00100   [8]  FF FF FF FF 00 FF FF FF
  can0  18FEE000   [8]  00 00 00 00 00 00 00 00
  can0  18FEF100   [8]  FF FF FE FC FF FF 00 FF
  can0  18FEF200   [8]  FF FF 00 00 00 00 FF FF
  can0  0CF00300   [8]  DD 00 FF FF FF FC FF FF
  can0  0CF00400   [8]  50 7D 84 FF FF 00 F6 7D
  can0  0CF00400   [8]  50 7D 84 FF FF 00 F6 7D
  can0  0CF00400   [8]  50 7D 84 FF FF 00 F6 7D
  can0  0CF00400   [8]  50 7D 84 FF FF 00 F6 7D
  can0  0CF00400   [8]  50 7D 84 FF FF 00 F6 7D
  can0  18FEDF00   [8]  85 FF FF FF FF FF FF FF
  can0  0CF00300   [8]  DD 00 FF FF FF FC FF FF
  can0  0CF00400   [8]  50 7D 84 FF FF 00 F6 7D
  can0  0CF00400   [8]  50 7D 84 FF FF 00 F6 7D
  can0  0CF00400   [8]  50 7D 84 FF FF 00 F6 7D
  can0  0CF00400   [8]  50 7D 84 FF FF 00 F6 7D
  can0  0CF00400   [8]  50 7D 84 FF FF 00 F6 7D
  can0  18FEDF00   [8]  85 FF FF FF FF FF FF FF
  can0  1892FE00   [8]  FF FF FF FF FF FF FF FF
  can0  18F0000F   [8]  DF 7D 7D FF 0F FF FF 7D
  can0  18F00100   [8]  FF FF FF FF 00 FF FF FF
  can0  18FEE000   [8]  00 00 00 00 00 00 00 00
  can0  18FEF100   [8]  FF FF FE FC FF FF 00 FF
  can0  18FEF200   [8]  FF FF 00 00 00 00 FF FF
  can0  0CF00300   [8]  DD 00 FF FF FF FC FF FF
  can0  0CF00400   [8]  50 7D 84 FF FF 00 F6 7D
  can0  0CF00400   [8]  50 7D 84 FF FF 00 F6 7D
  can0  0CF00400   [8]  50 7D 84 FF FF 00 F6 7D
  can0  0CF00400   [8]  50 7D 84 FF FF 00 F6 7D
  can0  0CF00400   [8]  50 7D 84 FF FF 00 F6 7D
  can0  18FEDF00   [8]  85 FF FF FF FF FF FF FF
  can0  0CF00300   [8]  DD 00 FF FF FF FC FF FF
  can0  0CF00400   [8]  50 7D 84 FF FF 00 F6 7D
  can0  0CF00400   [8]  50 7D 84 FF FF 00 F6 7D
  can0  0CF00400   [8]  50 7D 84 FF FF 00 F6 7D
  can0  0CF00400   [8]  50 7D 84 FF FF 00 F6 7D
  can0  0CF00400   [8]  50 7D 84 FF FF 00 F6 7D
  can0  18FEDF00   [8]  85 FF FF FF FF FF FF FF
  can0  1892FE00   [8]  FF FF FF FF FF FF FF FF
  can0  18F0000F   [8]  DF 7D 7D FF 0F FF FF 7D
  can0  18F00100   [8]  FF FF FF FF 00 FF FF FF
  can0  18FEE000   [8]  00 00 00 00 00 00 00 00
  can0  18FEF100   [8]  FF FF FE FC FF FF 00 FF
  can0  18FEF200   [8]  FF FF 00 00 00 00 FF FF
  can0  0CF00300   [8]  DD 00 FF FF FF FC FF FF
  can0  0CF00400   [8]  50 7D 84 FF FF 00 F6 7D
  can0  0CF00400   [8]  50 7D 84 FF FF 00 F6 7D
  can0  0CF00400   [8]  50 7D 84 FF FF 00 F6 7D
  can0  0CF00400   [8]  50 7D 84 FF FF 00 F6 7D
  can0  0CF00400   [8]  50 7D 84 FF FF 00 F6 7D
  can0  18FEDF00   [8]  85 FF FF FF FF FF FF FF
  can0  0CF00300   [8]  DD 00 FF FF FF FC FF FF
  can0  0CF00400   [8]  50 7D 84 FF FF 00 F6 7D
  can0  0CF00400   [8]  50 7D 84 FF FF 00 F6 7D
  can0  0CF00400   [8]  50 7D 84 FF FF 00 F6 7D
  can0  0CF00400   [8]  50 7D 84 FF FF 00 F6 7D
  can0  0CF00400   [8]  50 7D 84 FF FF 00 F6 7D
  can0  18FEDF00   [8]  85 FF FF FF FF FF FF FF
  can0  1892FE00   [8]  FF FF FF FF FF FF FF FF
  can0  18F0000F   [8]  DF 7D 7D FF 0F FF FF 7D
  can0  18F00100   [8]  FF FF FF FF 00 FF FF FF
  can0  18FEE000   [8]  00 00 00 00 00 00 00 00
  can0  18FEF100   [8]  FF FF FE FC FF FF 00 FF
  can0  18FEF200   [8]  FF FF 00 00 00 00 FF FF
  can0  18FEEF00   [8]  FF FF FF FF FF FF FF FE
  can0  0CF00300   [8]  DD 00 FF FF FF FC FF FF
  can0  0CF00400   [8]  50 7D 84 FF FF 00 F6 7D
  can0  0CF00400   [8]  50 7D 84 FF FF 00 F6 7D
  can0  0CF00400   [8]  50 7D 84 FF FF 00 F6 7D
  can0  0CF00400   [8]  50 7D 84 FF FF 00 F6 7D
  can0  0CF00400   [8]  50 7D 84 FF FF 00 F6 7D
  can0  18FEDF00   [8]  85 FF FF FF FF FF FF FF
  can0  0CF00300   [8]  DD 00 FF FF FF FC FF FF
  can0  0CF00400   [8]  50 7D 84 FF FF 00 F6 7D
  can0  0CF00400   [8]  50 7D 84 FF FF 00 F6 7D
  can0  0CF00400   [8]  50 7D 84 FF FF 00 F6 7D
  can0  0CF00400   [8]  50 7D 84 FF FF 00 F6 7D
  can0  0CF00400   [8]  50 7D 84 FF FF 00 F6 7D
  can0  18FEDF00   [8]  85 FF FF FF FF FF FF FF
  can0  1892FE00   [8]  FF FF FF FF FF FF FF FF
  can0  18F0000F   [8]  DF 7D 7D FF 0F FF FF 7D
  can0  18F00100   [8]  FF FF FF FF 00 FF FF FF
  can0  18FEE000   [8]  00 00 00 00 00 00 00 00
  can0  18FEF100   [8]  FF FF FE FC FF FF 00 FF
  can0  18FEF200   [8]  FF FF 00 00 00 00 FF FF
  can0  0CF00300   [8]  DD 00 FF FF FF FC FF FF
  can0  0CF00400   [8]  50 7D 84 FF FF 00 F6 7D
  can0  0CF00400   [8]  50 7D 84 FF FF 00 F6 7D
  can0  0CF00400   [8]  50 7D 84 FF FF 00 F6 7D
  can0  0CF00400   [8]  50 7D 84 FF FF 00 F6 7D
  can0  0CF00400   [8]  50 7D 84 FF FF 00 F6 7D
  can0  18FEDF00   [8]  85 FF FF FF FF FF FF FF
  can0  0CF00300   [8]  DD 00 FF FF FF FC FF FF
  can0  0CF00400   [8]  50 7D 84 FF FF 00 F6 7D
  can0  0CF00400   [8]  50 7D 84 FF FF 00 F6 7D
  can0  0CF00400   [8]  50 7D 84 FF FF 00 F6 7D
  can0  0CF00400   [8]  50 7D 84 FF FF 00 F6 7D
  can0  0CF00400   [8]  50 7D 84 FF FF 00 F6 7D
  can0  18FEDF00   [8]  85 FF FF FF FF FF FF FF
