Script started on 2025-04-04 16:53:34-04:00 [COMMAND="bash -c './core-testing && pytest ./core/'" TERM="xterm-256color" TTY="/dev/pts/1" COLUMNS="71" LINES="22"]
Please ensure you are running this script on the post-production UTHP hardware (eMMC).
Also ensure the J1939 and J1708 buses are powered.
Are you connected to the Cascadia CAN bus and the Brake Board? (y/n) y
Setting up the environment for testing the core uthp tests...
=====================================================
Unique identifiers for UTHP-R1-0038:
mmcblk1      
|-mmcblk1p1  F8A3-905D
`-mmcblk1p2  cd4b91d6-378b-473c-93c2-ffdb73cb40fc
mmcblk1boot0 
mmcblk1boot1 
Setting up the CAN interface...
Setting up the Brake Board...
Environment setup should be complete... waiting for user to confirm hardware is ready.
Press any key to continue...
Starting the core uthp tests...
[1m========================= test session starts =========================[0m
platform linux -- Python 3.12.9, pytest-8.0.2, pluggy-1.4.0
rootdir: /home/uthp/uthp-tests/core
configfile: pytest.ini
plugins: anyio-3.6.1
[1mcollecting ... [0m[1mcollecting 9 items                                                    [0m[1mcollecting 22 items                                                   [0m[1mcollecting 25 items                                                   [0m[1mcollecting 34 items                                                   [0m[1mcollected 40 items                                                    [0m

core/test_can-utils.py candump output:
   can0  14FF0030   [8]  F5 FF FF FF FF FF FF FF
  can0  08F01D13   [8]  6C 7D 20 FF 10 8A F5 D2
  can0  08F0090B   [8]  6C 7D 20 71 7D 80 7D FF
  can0  08FE6E0B   [8]  FF FE FF FE FF FE FF FE
  can0  08FF000B   [8]  00 00 FF FA 0C FF 0F 63
  can0  10FF010B   [8]  D7 06 71 7D 71 7D 32 6D
  can0  0CFE6C17   [8]  FF FF FF FF 00 FE 00 FE
  can0  14FDC40B   [8]  FF 0B 5F FF FF FF FF FF
  can0  14FEBF0B   [8]  FF FE FE FE FE FE FF FF
  can0  08F00200   [8]  FD FF FF FF FF FF FF FF
  can0  0CF00400   [8]  50 7D 84 FF FF 00 F6 7D
  can0  0CFF0300   [8]  7D FF FF FF FF FF FF FF
  can0  10FF0100   [8]  FF 3F FF FF FF FF 06 FC
  can0  14F00000   [8]  FF 7D 7D FF FF FF FF 28
  can0  10FF00E6   [8]  FF FF FF FF FF FF FF FF
  can0  08F01D13   [8]  6C 7D 20 FF 10 8A F5 E3
  can0  08F0090B   [8]  6C 7D 20 71 7D 80 7D FF
  can0  08FE6E0B   [8]  FF FE FF FE FF FE FF FE
  can0  08FF000B   [8]  00 00 FF FA 0C FF 1F 51
  can0  0CFF000B   [8]  FF FF FF FF 00 FF 00 84
  can0  14D0FF17   [8]  FF FF FF FF FF FF FF FF
  can0  14F0010B   [8]  0F 00 FF FF FF 1C FF FF
  can0  08F00200   [8]  FD FF FF FF FF FF FF FF
  can0  0CFF0200   [8]  00 01 FF FF FF 00 A1 37
  can0  0CFF0500   [8]  FF FF FF FF FF FF FF FF
  can0  14F00500   [8]  FF FF FF FF FF FF FF FF
  can0  14FF1100   [8]  3F F7 FF 00 7F 13 08 FD
  can0  10FF0019   [8]  FF FF 0F FF FF FF 02 FD
  can0  18FF8013   [8]  FD 17 04 0F 04 00 00 03
  can0  10FF01E6   [8]  FF FF 7D CF FF FF CF 59
  can0  08F01D13   [8]  6C 7D 20 FF 10 8A F5 F4
  can0  08F0090B   [8]  6C 7D 20 71 7D 80 7D FF
  can0  08FE6E0B   [8]  FF FE FF FE FF FE FF FE
  can0  08FF000B   [8]  00 00 FF FA 0C FF 2F 07
  can0  1001000B   [8]  FF FF FF FF FF FF FF FF
  can0  0CFE6C17   [8]  FF FF FF FF 00 FE 00 FE
  can0  08F00200   [8]  FD FF FF FF FF FF FF FF
  can0  0CF00400   [8]  50 7D 84 FF FF 00 F6 7D
  can0  0CFF0300   [8]  7D FF FF FF FF FF FF FF
  can0  10F00300   [8]  DD 00 FF FF FF FC FF FF
  can0  14FEDF00   [8]  85 FF FF FF FF FF FF FF
  can0  14FF0E00   [8]  FF FF FF FF FF FF 00 FB
  can0  08F01D13   [8]  6C 7D 20 FF 10 8A F5 05
  can0  08F0090B   [8]  6C 7D 20 71 7D 80 7D FF
  can0  08FE6E0B   [8]  FF FE FF FE FF FE FF FE
  can0  08FF000B   [8]  00 00 FF FA 0C FF 3F 35
  can0  0CFF000B   [8]  FF FF FF FF 00 FF 10 B6
  can0  14FEAE17   [8]  FF FF 00 00 FF FF 5F FF
  can0  08F00200   [8]  FD FF FF FF FF FF FF FF
  can0  0CFF0200   [8]  00 01 FF FF FF 00 B1 05
  can0  0CFF0500   [8]  FF FF FF FF FF FF FF FF
  can0  10FF0000   [8]  FC A8 61 FC F3 28 F3 FC
  can0  14FF0D00   [8]  04 FF FB 07 00 3C 3F 3C
  can0  10FF0021   [8]  82 00 00 00 FF 3F 4D C8
  can0  10FF0047   [8]  C1 3F FF FF FF FF FF FF
  can0  18FF0921   [8]  3F FF FF FF FF FF FF FF
  can0  18FF1521   [8]  FF FF FF FF FF FF C0 12
  can0  18FF1621   [8]  FC FF FF FF FF FF FF FF
  can0  08F01D13   [8]  6C 7D 20 FF 10 8A F5 16
  can0  08F0090B   [8]  6C 7D 20 71 7D 80 7D FF
  can0  08FE6E0B   [8]  FF FE FF FE FF FE FF FE
  can0  08FF000B   [8]  00 00 FF FA 0C FF 4F AB
  can0  0CFE6C17   [8]  FF FF FF FF 00 FE 00 FE
  can0  10FF0117   [8]  F0 FA F0 FF FF FF FF FF
  can0  08F00200   [8]  FD FF FF FF FF FF FF FF
  can0  0CF00400   [8]  50 7D 84 FF FF 00 F6 7D
  can0  0CFF0300   [8]  7D FF FF FF FF FF FF FF
  can0  14FF0A00   [8]  FF FF FF 00 00 FF FF BF
  can0  18FFC025   [8]  43 0C FF 40 50 F0 FF FF
  can0  08F01D13   [8]  6C 7D 20 FF 10 8A F5 27
  can0  08F0090B   [8]  6C 7D 20 71 7D 80 7D FF
  can0  08FE6E0B   [8]  FF FE FF FE FF FE FF FE
  can0  08FF000B   [8]  00 00 FF FA 0C FF 5F 99
  can0  0CFF000B   [8]  FF FF FF FF 00 FF 20 E0
  can0  10FF010B   [8]  01 07 71 7D 71 7D 32 6D
  can0  14FF0017   [8]  40 00 00 03 03 10 00 0C
  can0  08F00200   [8]  FD FF FF FF FF FF FF FF
  can0  0CFF0200   [8]  00 01 FF FF FF 00 C1 9B
  can0  0CFF0500   [8]  FF FF FF FF FF FF FF FF
  can0  10FF0100   [8]  FF 3F FF FF FF FF 06 FC
  can0  14FF0145   [8]  10 00 00 FF FF FF FF FF
  can0  14FF0900   [8]  FF FF FF FF FF FF FF FF
  can0  18FFC125   [8]  FF FC 5A 33 01 00 00 00
  can0  18F00100   [8]  FF FF FF FF 00 FF FF FF
  can0  14FEF200   [8]  FF FF 00 00 00 00 FF FF
  can0  10FF00E6   [8]  FF FF FF FF FF FF FF FF
  can0  18FFC225   [8]  00 10 A0 01 C6 01 57 00
  can0  08F0090B   [8]  6C 7D 20 71 7D 80 7D FF
  can0  08F01D13   [8]  6C 7D 20 FF 10 8A F5 38
  can0  08FE6E0B   [8]  FF FE FF FE FF FE FF FE
  can0  08FF000B   [8]  00 00 FF FA 0C FF 6F CF
  can0  0CFE6C17   [8]  FF FF FF FF 00 FE 00 FE
  can0  08F00200   [8]  FD FF FF FF FF FF FF FF
  can0  0CF00400   [8]  50 7D 84 FF FF 00 F6 7D
  can0  0CFF0300   [8]  7D FF FF FF FF FF FF FF
  can0  14FF0700   [8]  FF FF FF FF FF FF FF FF
  can0  14FF1600   [8]  FF FF FF FF FF FF FF FF
  can0  10FF0019   [8]  FF FF 0F FF FF FF 02 FD
  can0  18FFC325   [8]  25 41 F3 50 C0 00 41 C0
  can0  14FED521   [8]  FF FF FC FF FF FF FF FF
  can0  14FF0131   [8]  00 00 E0 CC 00 00 00 00
  can0  14FF0231   [8]  FC FF FF FF FF FF FF 3F
  can0  14FF0721   [8]  41 C4 F0 FF FF FF FF FF
  can0  14FF0821   [8]  4D 34 01 FF CF 00 00 FF
  can0  08F01D13   [8]  6C 7D 20 FF 10 8A F5 49
  can0  08F0090B   [8]  6C 7D 20 71 7D 80 7D FF
  can0  08FE6E0B   [8]  FF FE FF FE FF FE FF FE
  can0  08FF000B   [8]  00 00 FF FA 0C FF 7F FD
  can0  0CFF000B   [8]  FF FF FF FF 00 FF 30 D2
  can0  1001000B   [8]  FF FF FF FF FF FF FF FF
  can0  14FF0117   [8]  00 00 F0 FF FC FF 00 00
  can0  18FFC425   [8]  13 D4 13 D4 F0 FF F0 FF
  can0  08F00200   [8]  FD FF FF FF FF FF FF FF
  can0  0CFF0200   [8]  00 01 FF FF FF 00 D1 A9
  can0  0CFF0500   [8]  FF FF FF FF FF FF FF FF
  can0  10F00300   [8]  DD 00 FF FF FF FC FF FF
  can0  14FF0600   [8]  FF 80 7F F7 FF FF FF FF
  can0  14FF0019   [8]  0F FF FF 01 14 FF FF BF
  can0  14FF02ED   [8]  F1 FF FF FF FF FF FF FF
  can0  18FFC725   [8]  43 00 FC FF FF FF FF FF
  can0  10FF01E6   [8]  FF FF 7D CF FF FF DF 6B
  can0  14FEAE30   [8]  FF FF 00 00 FF FF FF FF
  can0  14FF02EC   [8]  03 FF FF FF CF F0 F3 FF
  can0  14FF0331   [8]  FF FF CF FF 1C FF FF FF
  can0  08F01D13   [8]  6C 7D 20 FF 10 8A F5 5A
  can0  08F0090B   [8]  6C 7D 20 71 7D 80 7D FF
  can0  08FE6E0B   [8]  FF FE FF FE FF FE FF FE
  can0  08FF000B   [8]  00 00 FF FA 0C FF 8F 68
  can0  14FE6F0B   [8]  FF FF FF FF FF FF FF FF
  can0  0CFE6C17   [8]  FF FF FF FF 00 FE 00 FE
  can0  14FF010B   [8]  FF 00 3F FF F0 FF 7F FF
  can0  14FF0217   [8]  FF FF FF FF FF FF FF FF
  can0  08F00200   [8]  FD FF FF FF FF FF FF FF
  can0  0CF00400   [8]  50 7D 84 FF FF 00 F6 7D
  can0  0CFF0300   [8]  7D FF FF FF FF FF FF FF
  can0  10FF0000   [8]  FC A8 61 FC F3 28 F3 FC
  can0  14FF020B   [8]  7D 7D 7D 7D 80 80 FF FF
  can0  14FF0000   [8]  FF FF FF 00 30 FF FF FF
  can0  14FF0347   [8]  00 FF 3F FF FF FF FF FF
  can0  14FF1017   [8]  FF FF 00 00 FF FD FF FF
  can0  18FFC525   [8]  01 05 15 14 01 44 00 01
  can0  14FE5A2F   [8]  FF FF FF FF FF FF FF FF
  can0  10FF0021   [8]  82 00 00 00 FF 3F 4D C8
  can0  10FF0047   [8]  C1 3F FF FF FF FF FF FF
  can0  14FF0521   [8]  0C FF 40 F4 FC 3F 3F 00
  can0  14FF0531   [8]  FF FF FF FF FF FF FF FF
  can0  08F01D13   [8]  6C 7D 20 FF 10 8A F5 6B
  can0  08F0090B   [8]  6C 7D 20 71 7D 80 7D FF
  can0  08FE6E0B   [8]  FF FE FF FE FF FE FF FE
  can0  08FF000B   [8]  00 00 FF FA 0C FF 9F 5A
  can0  0CFF000B   [8]  FF FF FF FF 00 FF 40 4C
  can0  10FF0117   [8]  F0 FA F0 FF FF FF FF FF
  can0  14FE4F0B   [8]  FF FF FF FF FF FF FF FF
  can0  14FEF217   [8]  FF FF FF FF FF FF FF FF
  can0  08F00200   [8]  FD FF FF FF FF FF FF FF
  can0  0CFF0200   [8]  00 01 FF FF FF 00 E1 FF
  can0  14FF000B   [8]  FC 5F C1 C1 C1 FF 4F 8B
  can0  0CFF0500   [8]  FF FF FF FF FF FF FF FF
  can0  18FF0400   [8]  03 C3 3F 03 CF 0D 6F BB
  can0  14FEF100   [8]  FF FF FE 0C FF FF 1F FF
  can0  18FF0717   [8]  FF FF FF FF FF FF FF FF
  can0  18FFC625   [8]  10 00 00 00 00 00 20 17
  can0  14FF0053   [8]  FF FF FF FF FF FF FF FF
  can0  14FF0030   [8]  F5 FF FF FF FF FF FF FF
  can0  18FFC925   [8]  00 00 00 00 00 00 F0 FF
  can0  08F0090B   [8]  6C 7D 20 71 7D 80 7D FF
  can0  08F01D13   [8]  6C 7D 20 FF 10 8A F5 7C
  can0  08FE6E0B   [8]  FF FE FF FE FF FE FF FE
  can0  08FF000B   [8]  00 00 FF FA 0C FF AF 0C
  can0  10FF010B   [8]  52 08 71 7D 71 7D 32 6D
  can0  0CFE6C17   [8]  FF FF FF FF 00 FE 00 FE
  can0  14FDC40B   [8]  FF 0B 5F FF FF FF FF FF
  can0  18FD0517   [8]  7F FF FF FF FF FF FF FF
  can0  08F00200   [8]  FD FF FF FF FF FF FF FF
  can0  0CF00400   [8]  50 7D 84 FF FF 00 F6 7D
  can0  0CFF0300   [8]  7D FF FF FF FF FF FF FF
  can0  10FF0100   [8]  FF 3F FF FF FF FF 06 FC
  can0  14FEBF0B   [8]  FF FE FE FE FE FE FF FF
  can0  14F00000   [8]  FF 7D 7D FF FF FF FF 28
  can0  18FF0617   [8]  FF FF FF FF FF FF FF FF
  can0  18FFCA25   [8]  02 46 5E 5E 40 1F 1C 25
  can0  10FF00E6   [8]  FF FF FF FF FF FF FF FF
  can0  18FF00E6   [8]  00 FC F3 CF F0 FF FF FF
  can0  18FF8017   [8]  FD 25 04 0F 4C B8 09 03
  can0  08F01D13   [8]  6C 7D 20 FF 10 8A F5 8D
  can0  08F0090B   [8]  6C 7D 20 71 7D 80 7D FF
  can0  08FE6E0B   [8]  FF FE FF FE FF FE FF FE
  can0  08FF000B   [8]  00 00 FF FA 0C FF BF 3E
  can0  0CFF000B   [8]  FF FF FF FF 00 FF 50 7E
  can0  14D0FF17   [8]  FF FF FF FF FF FF FF FF
  can0  14F0010B   [8]  0F 00 FF FF FF 1C FF FF
  can0  18FF0517   [8]  00 00 00 F0 FF FF FF FF
  can0  08F00200   [8]  FD FF FF FF FF FF FF FF
  can0  0CFF0200   [8]  00 01 FF FF FF 00 F1 CD
  can0  18FF0817   [8]  00 0C 00 00 FF FF FF FF
  can0  0CFF0500   [8]  FF FF FF FF FF FF FF FF
  can0  14F00500   [8]  FF FF FF FF FF FF FF FF
  can0  14FF1100   [8]  3F F7 FF 00 7F 13 08 FD
  can0  10FF0019   [8]  FF FF 0F FF FF FF 02 FD
  can0  18FF0025   [8]  F0 FF 64 0A 00 00 00 00
  can0  10FF01E6   [8]  FF FF 7D CF FF FF EF 3D
  can0  18FEF521   [8]  FF FF FF FF FF FF FF FF
  can0  08F01D13   [8]  6C 7D 20 FF 10 8A F5 9E
  can0  08F0090B   [8]  6C 7D 20 71 7D 80 7D FF
  can0  08FE6E0B   [8]  FF FE FF FE FF FE FF FE
  can0  08FF000B   [8]  00 00 FF FA 0C FF CF A0
  can0  1001000B   [8]  FF FF FF FF FF FF FF FF
  can0  0CFE6C17   [8]  FF FF FF FF 00 FE 00 FE
  can0  18FE700B   [8]  FF FF FF FF FF FF FF FF
  can0  18FD7D17   [8]  FF FF FF FF FF FF FF FF
  can0  08F00200   [8]  FD FF FF FF FF FF FF FF
  can0  0CF00400   [8]  50 7D 84 FF FF 00 F6 7D
  can0  0CFF0300   [8]  7D FF FF FF FF FF FF FF
  can0  10F00300   [8]  DD 00 FF FF FF FC FF FF
  can0  18FF0098   [8]  FF FF FF FF FF FF FF FF
  can0  14FEDF00   [8]  85 FF FF FF FF FF FF FF
  can0  18FF0917   [8]  FF 03 FF FF FF FF FF FF
  can0  14FF0E00   [8]  FF FF FF FF FF FF 00 FB
  can0  18FF0198   [8]  00 00 00 00 00 00 FF FF
  can0  18FF0298   [8]  00 FC FF FF FF FF FF FF
  can0  18FEF721   [8]  FF FF FF FF 1C 01 FF FF
  can0  18FEF921   [8]  FF FF FF FF FF FF FF FF
  can0  18FF0047   [8]  FE FE 99 FF FF FC FF FF
  can0  08F01D13   [8]  6C 7D 20 FF 10 8A F5 AF
  can0  08F0090B   [8]  6C 7D 20 71 7D 80 7D FF
  can0  08FE6E0B   [8]  FF FE FF FE FF FE FF FE
  can0  08FF000B   [8]  00 00 FF FA 0C FF DF 92
  can0  0CFF000B   [8]  FF FF FF FF 00 FF 60 28
  can0  14FEAE17   [8]  FF FF 00 00 FF FF 5F FF
  can0  18FF0417   [8]  C0 00 00 FF FF FF FF FF
  can0  18FF1317   [8]  FF FF FF FF FF FF FF FF
  can0  08F00200   [8]  FD FF FF FF FF FF FF FF
  can0  0CFF0200   [8]  00 01 FF FF FF 00 01 58
  can0  0CFF0500   [8]  FF FF FF FF FF FF FF FF
  can0  10FF0000   [8]  FC A8 61 FC F3 28 F3 FC
  can0  14FF0D00   [8]  04 FF FB 07 00 3C 3F 3C
  can0  18FF0900   [8]  3C 35 FF FF FF FF FF FF
  can0  10FF0021   [8]  82 00 00 00 FF 3F 4D C8
  can0  10FF0047   [8]  C1 3F FF FF FF FF FF FF
  can0  18FF0247   [8]  FF FF FF FF FF FF FF FF
  can0  18FF0421   [8]  FF FF FF FF FF FB 7F DC
  can0  08F01D13   [8]  6C 7D 20 FF 10 8A F5 A0
  can0  08F0090B   [8]  6C 7D 20 71 7D 80 7D FF
  can0  08FE6E0B   [8]  FF FE FF FE FF FE FF FE
  can0  08FF000B   [8]  00 00 FF FA 0C FF EF C4
  can0  0CFE6C17   [8]  FF FF FF FF 00 FE 00 FE
  can0  10FF0117   [8]  F0 FA F0 FF FF FF FF FF
  can0  18FF1517   [8]  FF FF FF FF FF FF FF FF
  can0  08F00200   [8]  FD FF FF FF FF FF FF FF
  can0  0CF00400   [8]  50 7D 84 FF FF 00 F6 7D
  can0  0CFF0300   [8]  7D FF FF FF FF FF FF FF
  can0  14FF0A00   [8]  FF FF FF 00 00 FF FF BF
  can0  18FD0900   [8]  00 00 00 00 00 00 00 00
  can0  18FF0447   [8]  01 FF FF 03 F0 FF FF FF
  can0  18FF0547   [8]  FF FF FF FF FF FF FF FF
  can0  18FF0621   [8]  C3 1E C0 03 4C C7 FF FF
  can0  08F01D13   [8]  6C 7D 20 FF 10 8A F5 C1
  can0  08F0090B   [8]  6C 7D 20 71 7D 80 7D FF
  can0  08FE6E0B   [8]  FF FE FF FE FF FE FF FE
  can0  08FF000B   [8]  00 00 FF FA 0C FF FF F6
  can0  0CFF000B   [8]  FF FF FF FF 00 FF 70 1A
  can0  10FF010B   [8]  84 09 71 7D 71 7D 32 6D
  can0  14FF0017   [8]  40 00 00 03 03 10 00 0C
  can0  18FF0317   [8]  FF FF FF FF FF FF FF FF
  can0  08F00200   [8]  FD FF FF FF FF FF FF FF
  can0  0CFF0200   [8]  00 01 FF FF FF 00 11 6A
  can0  0CFF0500   [8]  FF FF FF FF FF FF FF FF
  can0  10FF0100   [8]  FF 3F FF FF FF FF 06 FC
  can0  14FF0145   [8]  10 00 00 FF FF FF FF FF
  can0  14FF0900   [8]  FF FF FF FF FF FF FF FF
  can0  18F00100   [8]  FF FF FF FF 00 FF FF FF
  can0  14FEF200   [8]  FF FF 00 00 00 00 FF FF
  can0  10FF00E6   [8]  FF FF FF FF FF FF FF FF
  can0  18FF0631   [8]  FF FF FF FC FC 33 FF FF
  can0  18FF0721   [8]  FF 3F FF FF FF 30 14 96
  can0  08F01D13   [8]  6C 7D 20 FF 10 8A F5 D2
  can0  08F0090B   [8]  6C 7D 20 71 7D 80 7D FF
  can0  08FE6E0B   [8]  FF FE FF FE FF FE FF FE
  can0  08FF000B   [8]  00 00 FF FA 0C FF 0F 63
  can0  0CFE6C17   [8]  FF FF FF FF 00 FE 00 FE
  can0  18FF0117   [8]  FF FF FF FF FF FF FF FF
  can0  08F00200   [8]  FD FF FF FF FF FF FF FF
  can0  0CF00400   [8]  50 7D 84 FF FF 00 F6 7D
  can0  0CFF0300   [8]  7D FF FF FF FF FF FF FF
  can0  14FF0700   [8]  FF FF FF FF FF FF FF FF
  can0  14FF1600   [8]  FF FF FF FF FF FF FF FF
  can0  10FF0019   [8]  FF FF 0F FF FF FF 02 FD
  can0  14FED521   [8]  FF FF FC FF FF FF FF FF
  can0  14FF0131   [8]  00 00 E0 CC 00 00 00 00
  can0  14FF0231   [8]  FC FF FF FF FF FF FF 3F
  can0  14FF0721   [8]  DF C5 F0 FF FF FF FF FF
  can0  08F01D13   [8]  6C 7D 20 FF 10 8A F5 E3
  can0  08F0090B   [8]  6C 7D 20 71 7D 80 7D FF
  can0  08FE6E0B   [8]  FF FE FF FE FF FE FF FE
  can0  08FF000B   [8]  00 00 FF FA 0C FF 1F 51
  can0  0CFF000B   [8]  FF FF FF FF 00 FF 80 8F
  can0  1001000B   [8]  FF FF FF FF FF FF FF FF
  can0  14FF0117   [8]  00 00 F0 FF FC FF 00 00
  can0  14FF0821   [8]  86 35 01 FF CF 00 00 FF
  can0  18FF0217   [8]  03 30 00 00 00 10 00 00
  can0  08F00200   [8]  FD FF FF FF FF FF FF FF
  can0  0CFF0200   [8]  00 01 FF FF FF 00 21 3C
  can0  0CFF0500   [8]  FF FF FF FF FF FF FF FF
  can0  10F00300   [8]  DD 00 FF FF FF FC FF FF
  can0  14FF0600   [8]  FF 80 7F F7 FF FF FF FF
  can0  18FD9500   [8]  FF FF FF FF FF FF FF FF
  can0  14FF0019   [8]  0F FF FF 01 14 FF FF BF
  can0  14FF02ED   [8]  F1 FF FF FF FF FF FF FF
  can0  10FF01E6   [8]  FF FF 7D CF FF FF FF 0F
  can0  14FEAE30   [8]  FF FF 00 00 FF FF FF FF
  can0  14FF02EC   [8]  03 FF FF FF CF F0 F3 FF
  can0  14FF0331   [8]  FF FF CF FF 1C FF FF FF
  can0  08F01D13   [8]  6C 7D 20 FF 10 8A F5 F4
  can0  08F0090B   [8]  6C 7D 20 71 7D 80 7D FF
  can0  08FE6E0B   [8]  FF FE FF FE FF FE FF FE
  can0  08FF000B   [8]  00 00 FF FA 0C FF 2F 07
  can0  14FE6F0B   [8]  FF FF FF FF FF FF FF FF
  can0  14FF0347   [8]  00 FF 3F FF FF FF FF FF
  can0  0CFE6C17   [8]  FF FF FF FF 00 FE 00 FE
  can0  14FF010B   [8]  FF 00 3F FF F0 FF 7F FF
  can0  08F00200   [8]  FD FF FF FF FF FF FF FF
  can0  0CF00400   [8]  50 7D 84 FF FF 00 F6 7D
  can0  0CFF0300   [8]  7D FF FF FF FF FF FF FF
  can0  10FF0000   [8]  FC A8 61 FC F3 28 F3 FC
  can0  14FF020B   [8]  7D 7D 7D 7D 80 80 FF FF
  can0  14FF0000   [8]  FF FF FF 00 30 FF FF FF
  can0  14FF0217   [8]  FF FF FF FF FF FF FF FF
  can0  18FEF847   [8]  FF FF FF FF 00 3D FF FF
  can0  14FF1017   [8]  FF FF 00 00 FF FD FF FF
  can0  18FF0503   [8]  FF FF FF FF FF FF FF FF
  can0  18FF0647   [8]  FF FF FF FF FF FF FF FF
  can0  14FE5A2F   [8]  FF FF FF FF FF FF FF FF
  can0  10FF0021   [8]  82 00 00 00 FF 3F 4D C8
  can0  10FF0047   [8]  C1 3F FF FF FF FF FF FF
  can0  14FF0521   [8]  0C FF 40 F4 FC 3F 3F 00
  can0  14FF0531   [8]  FF FF FF FF FF FF FF FF
  can0  08F01D13   [8]  6C 7D 20 FF 10 8A F5 05
  can0  08F0090B   [8]  6C 7D 20 71 7D 80 7D FF
  can0  08FE6E0B   [8]  FF FE FF FE FF FE FF FE
  can0  08FF000B   [8]  00 00 FF FA 0C FF 3F 35
  can0  0CFF000B   [8]  FF FF FF FF 00 FF 90 BD
  can0  10FF0117   [8]  F0 FA F0 FF FF FF FF FF
  can0  14FE4F0B   [8]  FF FF FF FF FF FF FF FF
  can0  14FEF217   [8]  FF FF FF FF FF FF FF FF
  can0  14FF000B   [8]  FC 5F C1 C1 C1 FF 5F B9
  can0  08F00200   [8]  FD FF FF FF FF FF FF FF
  can0  0CFF0200   [8]  00 01 FF FF FF 00 31 0E
  can0  18FF0017   [8]  05 30 65 6E C0 FC FF 15
  can0  0CFF0500   [8]  FF FF FF FF FF FF FF FF
  can0  18FF0400   [8]  03 C3 3F 03 CF 0D 7F 89
  can0  14FEF100   [8]  FF FF FE 0C FF FF 1F FF
  can0  18FF0300   [8]  FF FF C3 FD FD FF FF FF
  can0  14FF0053   [8]  FF FF FF FF FF FF FF FF
  can0  14FF0030   [8]  F5 FF FF FF FF FF FF FF
  can0  18FF8025   [8]  FD 00 04 0F 30 00 FF 03
  can0  08F01D13   [8]  6C 7D 20 FF 10 8A F5 16
  can0  08F0090B   [8]  6C 7D 20 71 7D 80 7D FF
  can0  08FE6E0B   [8]  FF FE FF FE FF FE FF FE
  can0  08FF000B   [8]  00 00 FF FA 0C FF 4F AB
  can0  10FF010B   [8]  65 0A 71 7D 71 7D 32 6D
  can0  0CFE6C17   [8]  FF FF FF FF 00 FE 00 FE
  can0  14FDC40B   [8]  FF 0B 5F FF FF FF FF FF
  can0  18FEE617   [8]  18 1B 15 04 48 28 7D 7D
  can0  08F00200   [8]  FD FF FF FF FF FF FF FF
  can0  0CF00400   [8]  50 7D 84 FF FF 00 F6 7D
  can0  0CFF0300   [8]  7D FF FF FF FF FF FF FF
  can0  10FF0100   [8]  FF 3F FF FF FF FF 06 FC
  can0  14FEBF0B   [8]  FF FE FE FE FE FE FF FF
  can0  14F00000   [8]  FF 7D 7D FF FF FF FF 28
  can0  18FF0000   [8]  1F 0A DB 05 7D E3 FF FF
  can0  10FF00E6   [8]  FF FF FF FF FF FF FF FF
  can0  08F01D13   [8]  6C 7D 20 FF 10 8A F5 27
  can0  08F0090B   [8]  6C 7D 20 71 7D 80 7D FF
  can0  08FE6E0B   [8]  FF FE FF FE FF FE FF FE
  can0  08FF000B   [8]  00 00 FF FA 0C FF 5F 99
  can0  0CFF000B   [8]  FF FF FF FF 00 FF A0 EB
  can0  14D0FF17   [8]  FF FF FF FF FF FF FF FF
  can0  14F0010B   [8]  0F 00 FF FF FF 1C FF FF
  can0  18FEC117   [8]  00 00 00 00 00 00 00 00
  can0  08F00200   [8]  FD FF FF FF FF FF FF FF
  can0  0CFF0200   [8]  00 01 FF FF FF 00 41 90
  can0  0CFF0500   [8]  FF FF FF FF FF FF FF FF
  can0  14F00500   [8]  FF FF FF FF FF FF FF FF
  can0  14FF1100   [8]  3F F7 FF 00 7F 13 08 FD
  can0  18FEF800   [8]  FF FF FF FF 00 3D FF FF
  can0  10FF0019   [8]  FF FF 0F FF FF FF 02 FD
  can0  10FF01E6   [8]  FF FF 7D CF FF FF 0F 9A
  can0  08F01D13   [8]  6C 7D 20 FF 10 8A F5 38
  can0  08F0090B   [8]  6C 7D 20 71 7D 80 7D FF
  can0  08FE6E0B   [8]  FF FE FF FE FF FE FF FE
  can0  08FF000B   [8]  00 00 FF FA 0C FF 6F CF
  can0  1001000B   [8]  FF FF FF FF FF FF FF FF
  can0  0CFE6C17   [8]  FF FF FF FF 00 FE 00 FE
  can0  18FD0917   [8]  FF FF FF FF FF FF FF FF
  can0  08F00200   [8]  FD FF FF FF FF FF FF FF
  can0  0CF00400   [8]  50 7D 84 FF FF 00 F6 7D
  can0  0CFF0300   [8]  7D FF FF FF FF FF FF FF
  can0  10F00300   [8]  DD 00 FF FF FF FC FF FF
  can0  14FEDF00   [8]  85 FF FF FF FF FF FF FF
  can0  14FF0E00   [8]  FF FF FF FF FF FF 00 FB
  can0  08F01D13   [8]  6C 7D 20 FF 10 8A F5 49
  can0  08F0090B   [8]  6C 7D 20 71 7D 80 7D FF
  can0  08FE6E0B   [8]  FF FE FF FE FF FE FF FE
  can0  08FF000B   [8]  00 00 FF FA 0C FF 7F FD
  can0  0CFF000B   [8]  FF FF FF FF 00 FF B0 D9
  can0  14FEAE17   [8]  FF FF 00 00 FF FF 5F FF
  can0  18DEEE17   [8]  F0 FF FF FF FF FF FF FF
  can0  08F00200   [8]  FD FF FF FF FF FF FF FF
  can0  0CFF0200   [8]  00 01 FF FF FF 00 51 A2
  can0  0CFF0500   [8]  FF FF FF FF FF FF FF FF
  can0  10FF0000   [8]  FC A8 61 FC F3 28 F3 FC
  can0  14FF0D00   [8]  04 FF FB 07 00 3C 3F 3C
  can0  18FEEE00   [8]  FF FF FF FF FF FF FF FF
  can0  10FF0021   [8]  82 00 00 00 FF 3F 4D C8
  can0  10FF0047   [8]  C1 3F FF FF FF FF FF FF
  can0  08F01D13   [8]  6C 7D 20 FF 10 8A F5 5A
  can0  08F0090B   [8]  6C 7D 20 71 7D 80 7D FF
  can0  08FE6E0B   [8]  FF FE FF FE FF FE FF FE
  can0  08FF000B   [8]  00 00 FF FA 0C FF 8F 68
  can0  0CFE6C17   [8]  FF FF FF FF 00 FE 00 FE
  can0  10FF0117   [8]  F0 FA F0 FF FF FF FF FF
  can0  08F00200   [8]  FD FF FF FF FF FF FF FF
  can0  0CF00400   [8]  50 7D 84 FF FF 00 F6 7D
  can0  0CFF0300   [8]  7D FF FF FF FF FF FF FF
  can0  14FF0A00   [8]  FF FF FF 00 00 FF FF BF
  can0  18FEE500   [8]  FF FF FF FF FF FF FF FF
  can0  18FFAD01   [8]  FF FF FF FF FF FF FF FF
  can0  08F01D13   [8]  6C 7D 20 FF 10 8A F5 6B
  can0  08F0090B   [8]  6C 7D 20 71 7D 80 7D FF
  can0  08FE6E0B   [8]  FF FE FF FE FF FE FF FE
  can0  08FF000B   [8]  00 00 FF FA 0C FF 9F 5A
  can0  0CFF000B   [8]  FF FF FF FF 00 FF C0 47
  can0  10FF010B   [8]  B3 0B 71 7D 71 7D 32 6D
  can0  14FF0017   [8]  40 00 00 03 03 10 00 0C
  can0  08F00200   [8]  FD FF FF FF FF FF FF FF
  can0  0CFF0200   [8]  00 01 FF FF FF 00 61 F4
  can0  0CFF0500   [8]  FF FF FF FF FF FF FF FF
  can0  10FF0100   [8]  FF 3F FF FF FF FF 06 FC
  can0  14FF0145   [8]  10 00 00 FF FF FF FF FF
  can0  14FF0900   [8]  FF FF FF FF FF FF FF FF
  can0  18F00100   [8]  FF FF FF FF 00 FF FF FF
  can0  14FF1200   [8]  FF FF 0D 0D 3C 01 EA FF
  can0  14FEF200   [8]  FF FF 00 00 00 00 FF FF
  can0  18FEEF00   [8]  FF FF FF FF FF FF FF FE
  can0  10FF00E6   [8]  FF FF FF FF FF FF FF FF
  can0  08F01D13   [8]  6C 7D 20 FF 10 8A F5 7C
  can0  08F0090B   [8]  6C 7D 20 71 7D 80 7D FF
  can0  08FE6E0B   [8]  FF FE FF FE FF FE FF FE
  can0  08FF000B   [8]  00 00 FF FA 0C FF AF 0C
  can0  0CFE6C17   [8]  FF FF FF FF 00 FE 00 FE
  can0  08F00200   [8]  FD FF FF FF FF FF FF FF
  can0  0CF00400   [8]  50 7D 84 FF FF 00 F6 7D
  can0  0CFF0300   [8]  7D FF FF FF FF FF FF FF
  can0  14FF0700   [8]  FF FF FF FF FF FF FF FF
  can0  14FF1600   [8]  FF FF FF FF FF FF FF FF
  can0  10FF0019   [8]  FF FF 0F FF FF FF 02 FD
  can0  14FED521   [8]  FF FF FC FF FF FF FF FF
  can0  14FF0131   [8]  00 00 E0 CC 00 00 00 00
  can0  14FF0231   [8]  FC FF FF FF FF FF FF 3F
  can0  14FF0721   [8]  B0 C6 F0 FF FF FF FF FF
  can0  14FF0821   [8]  C2 36 01 FF CF 00 00 FF
  can0  08F01D13   [8]  6C 7D 20 FF 10 8A F5 8D
  can0  08F0090B   [8]  6C 7D 20 71 7D 80 7D FF
  can0  08FE6E0B   [8]  FF FE FF FE FF FE FF FE
  can0  08FF000B   [8]  00 00 FF FA 0C FF BF 3E
  can0  0CFF000B   [8]  FF FF FF FF 00 FF D0 75
  can0  1001000B   [8]  FF FF FF FF FF FF FF FF
  can0  14FF0117   [8]  00 00 F0 FF FC FF 00 00
  can0  08F00200   [8]  FD FF FF FF FF FF FF FF
  can0  0CFF0200   [8]  00 01 FF FF FF 00 71 C6
  can0  0CFF0500   [8]  FF FF FF FF FF FF FF FF
  can0  10F00300   [8]  DD 00 FF FF FF FC FF FF
  can0  14FF0600   [8]  FF 80 7F F7 FF FF FF FF
  can0  14FF0019   [8]  0F FF FF 01 14 FF FF BF
  can0  14FF02ED   [8]  F1 FF FF FF FF FF FF FF
  can0  10FF01E6   [8]  FF FF 7D CF FF FF 1F A8
  can0  14FEAE30   [8]  FF FF 00 00 FF FF FF FF
  can0  14FF02EC   [8]  03 FF FF FF CF F0 F3 FF
  can0  14FF0331   [8]  FF FF CF FF 1C FF FF FF
  can0  08F01D13   [8]  6C 7D 20 FF 10 8A F5 9E
  can0  08F0090B   [8]  6C 7D 20 71 7D 80 7D FF
  can0  08FE6E0B   [8]  FF FE FF FE FF FE FF FE
  can0  08FF000B   [8]  00 00 FF FA 0C FF CF A0
  can0  14FE6F0B   [8]  FF FF FF FF FF FF FF FF
  can0  0CFE6C17   [8]  FF FF FF FF 00 FE 00 FE
  can0  14FF010B   [8]  FF 00 3F FF F0 FF 7F FF
  can0  14FF0217   [8]  FF FF FF FF FF FF FF FF
  can0  08F00200   [8]  FD FF FF FF FF FF FF FF
  can0  0CF00400   [8]  50 7D 84 FF FF 00 F6 7D
  can0  0CFF0300   [8]  7D FF FF FF FF FF FF FF
  can0  10FF0000   [8]  FC A8 61 FC F3 28 F3 FC
  can0  14FF020B   [8]  7D 7D 7D 7D 80 80 FF FF
  can0  14FF0000   [8]  FF FF FF 00 30 FF FF FF
  can0  14FF0347   [8]  00 FF 3F FF FF FF FF FF
  can0  14FF1017   [8]  FF FF 00 00 FF FD FF FF
  can0  18E00019   [8]  00 FF FF FC FF FF FF FF
  can0  14FE5A2F   [8]  FF FF FF FF FF FF FF FF
  can0  10FF0021   [8]  82 00 00 00 FF 3F 4D C8
  can0  10FF0047   [8]  C1 3F FF FF FF FF FF FF
  can0  14FF0521   [8]  0C FF 40 F4 FC 3F 3F 00
  can0  14FF0531   [8]  FF FF FF FF FF FF FF FF
  can0  08F01D13   [8]  6C 7D 20 FF 10 8A F5 AF
  can0  08F0090B   [8]  6C 7D 20 71 7D 80 7D FF
  can0  08FE6E0B   [8]  FF FE FF FE FF FE FF FE
  can0  08FF000B   [8]  00 00 FF FA 0C FF DF 92
  can0  0CFF000B   [8]  FF FF FF FF 00 FF E0 23
  can0  10FF0117   [8]  F0 FA F0 FF FF FF FF FF
  can0  14FE4F0B   [8]  FF FF FF FF FF FF FF FF
  can0  14FEF217   [8]  FF FF FF FF FF FF FF FF
  can0  14FF000B   [8]  FC 5F C1 C1 C1 FF 6F EF
  can0  08F00200   [8]  FD FF FF FF FF FF FF FF
  can0  0CFF0200   [8]  00 01 FF FF FF 00 81 53
  can0  18FF0400   [8]  03 C3 3F 03 CF 0D 8F 1C
  can0  0CFF0500   [8]  FF FF FF FF FF FF FF FF
  can0  14FEF100   [8]  FF FF FE 0C FF FF 1F FF
  can0  18FF8000   [8]  FD 0B 04 0F 04 21 00 03
  can0  14FF0053   [8]  FF FF FF FF FF FF FF FF
  can0  14FF0030   [8]  F5 FF FF FF FF FF FF FF
  can0  08F01D13   [8]  6C 7D 20 FF 10 8A F5 A0
  can0  08F0090B   [8]  6C 7D 20 71 7D 80 7D FF
  can0  08FE6E0B   [8]  FF FE FF FE FF FE FF FE
  can0  08FF000B   [8]  00 00 FF FA 0C FF EF C4
  can0  10FF010B   [8]  3C 0C 71 7D 71 7D 32 6D
  can0  14FDC40B   [8]  FF 0B 5F FF FF FF FF FF
  can0  0CFE6C17   [8]  FF FF FF FF 00 FE 00 FE
  can0  14FEBF0B   [8]  FF FE FE FE FE FE FF FF
  can0  08F00200   [8]  FD FF FF FF FF FF FF FF
  can0  0CF00400   [8]  50 7D 84 FF FF 00 F6 7D
  can0  0CFF0300   [8]  7D FF FF FF FF FF FF FF
  can0  10FF0100   [8]  FF 3F FF FF FF FF 06 FC
  can0  14F00000   [8]  FF 7D 7D FF FF FF FF 28
  can0  10FF00E6   [8]  FF FF FF FF FF FF FF FF
  can0  08F01D13   [8]  6C 7D 20 FF 10 8A F5 C1
  can0  08F0090B   [8]  6C 7D 20 71 7D 80 7D FF
  can0  08FE6E0B   [8]  FF FE FF FE FF FE FF FE
  can0  08FF000B   [8]  00 00 FF FA 0C FF FF F6
  can0  0CFF000B   [8]  FF FF FF FF 00 FF F0 11
  can0  14D0FF17   [8]  FF FF FF FF FF FF FF FF
  can0  14F0010B   [8]  0F 00 FF FF FF 1C FF FF
  can0  08F00200   [8]  FD FF FF FF FF FF FF FF
  can0  0CFF0200   [8]  00 01 FF FF FF 00 91 61
  can0  0CFF0500   [8]  FF FF FF FF FF FF FF FF
  can0  14F00500   [8]  FF FF FF FF FF FF FF FF
  can0  14FF1100   [8]  3F F7 FF 00 7F 13 08 FD
  can0  10FF0019   [8]  FF FF 0F FF FF FF 02 FD
  can0  10FF01E6   [8]  FF FF 7D CF FF FF 2F FE
  can0  08F01D13   [8]  6C 7D 20 FF 10 8A F5 D2
  can0  08F0090B   [8]  6C 7D 20 71 7D 80 7D FF
  can0  08FE6E0B   [8]  FF FE FF FE FF FE FF FE
  can0  08FF000B   [8]  00 00 FF FA 0C FF 0F 63
  can0  1001000B   [8]  FF FF FF FF FF FF FF FF
  can0  0CFE6C17   [8]  FF FF FF FF 00 FE 00 FE
  can0  08F00200   [8]  FD FF FF FF FF FF FF FF
  can0  0CF00400   [8]  50 7D 84 FF FF 00 F6 7D
  can0  0CFF0300   [8]  7D FF FF FF FF FF FF FF
  can0  10F00300   [8]  DD 00 FF FF FF FC FF FF
  can0  14FEDF00   [8]  85 FF FF FF FF FF FF FF
  can0  14FF0E00   [8]  FF FF FF FF FF FF 00 FB
  can0  08F01D13   [8]  6C 7D 20 FF 10 8A F5 E3
  can0  08F0090B   [8]  6C 7D 20 71 7D 80 7D FF
  can0  08FE6E0B   [8]  FF FE FF FE FF FE FF FE
  can0  08FF000B   [8]  00 00 FF FA 0C FF 1F 51
  can0  0CFF000B   [8]  FF FF FF FF 00 FF 00 84
  can0  14FEAE17   [8]  FF FF 00 00 FF FF 5F FF
  can0  08F00200   [8]  FD FF FF FF FF FF FF FF
  can0  0CFF0200   [8]  00 01 FF FF FF 00 A1 37
  can0  0CFF0500   [8]  FF FF FF FF FF FF FF FF
  can0  10FF0000   [8]  FC A8 61 FC F3 28 F3 FC
  can0  14FF0D00   [8]  04 FF FB 07 00 3C 3F 3C
  can0  10FF0021   [8]  82 00 00 00 FF 3F 4D C8
  can0  10FF0047   [8]  C1 3F FF FF FF FF FF FF
  can0  08F01D13   [8]  6C 7D 20 FF 10 8A F5 F4
  can0  08F0090B   [8]  6C 7D 20 71 7D 80 7D FF
  can0  08FE6E0B   [8]  FF FE FF FE FF FE FF FE
  can0  08FF000B   [8]  00 00 FF FA 0C FF 2F 07
  can0  0CFE6C17   [8]  FF FF FF FF 00 FE 00 FE
  can0  10FF0117   [8]  F0 FA F0 FF FF FF FF FF
  can0  08F00200   [8]  FD FF FF FF FF FF FF FF
  can0  0CF00400   [8]  50 7D 84 FF FF 00 F6 7D
  can0  0CFF0300   [8]  7D FF FF FF FF FF FF FF
  can0  14FF0A00   [8]  FF FF FF 00 00 FF FF BF
  can0  08F01D13   [8]  6C 7D 20 FF 10 8A F5 05
  can0  08F0090B   [8]  6C 7D 20 71 7D 80 7D FF
  can0  08FE6E0B   [8]  FF FE FF FE FF FE FF FE
  can0  08FF000B   [8]  00 00 FF FA 0C FF 3F 35
  can0  0CFF000B   [8]  FF FF FF FF 00 FF 10 B6
  can0  10FF010B   [8]  EA 0D 71 7D 71 7D 32 6D
  can0  14FF0017   [8]  40 00 00 03 03 10 00 0C
  can0  08F00200   [8]  FD FF FF FF FF FF FF FF
  can0  0CFF0200   [8]  00 01 FF FF FF 00 B1 05
  can0  0CFF0500   [8]  FF FF FF FF FF FF FF FF
  can0  10FF0100   [8]  FF 3F FF FF FF FF 06 FC
  can0  14FF0145   [8]  10 00 00 FF FF FF FF FF
  can0  14FF0900   [8]  FF FF FF FF FF FF FF FF
  can0  18F00100   [8]  FF FF FF FF 00 FF FF FF
  can0  14FEF200   [8]  FF FF 00 00 00 00 FF FF
  can0  10FF00E6   [8]  FF FF FF FF FF FF FF FF
  can0  08F01D13   [8]  6C 7D 20 FF 10 8A F5 16
  can0  08F0090B   [8]  6C 7D 20 71 7D 80 7D FF
  can0  08FE6E0B   [8]  FF FE FF FE FF FE FF FE
  can0  08FF000B   [8]  00 00 FF FA 0C FF 4F AB
  can0  0CFE6C17   [8]  FF FF FF FF 00 FE 00 FE
  can0  08F00200   [8]  FD FF FF FF FF FF FF FF
  can0  0CF00400   [8]  50 7D 84 FF FF 00 F6 7D
  can0  0CFF0300   [8]  7D FF FF FF FF FF FF FF
  can0  14FF0700   [8]  FF FF FF FF FF FF FF FF
  can0  14FF1600   [8]  FF FF FF FF FF FF FF FF
  can0  10FF0019   [8]  FF FF 0F FF FF FF 02 FD
  can0  14FED521   [8]  FF FF FC FF FF FF FF FF
  can0  14FF0131   [8]  00 00 E0 CC 00 00 00 00
  can0  14FF0231   [8]  FC FF FF FF FF FF FF 3F
  can0  14FF0721   [8]  03 C7 F0 FF FF FF FF FF
  can0  14FF0821   [8]  07 37 01 FF CF 00 00 FF
  can0  08F01D13   [8]  6C 7D 20 FF 10 8A F5 27
  can0  08F0090B   [8]  6C 7D 20 71 7D 80 7D FF
  can0  08FE6E0B   [8]  FF FE FF FE FF FE FF FE
  can0  08FF000B   [8]  00 00 FF FA 0C FF 5F 99
  can0  0CFF000B   [8]  FF FF FF FF 00 FF 20 E0
  can0  1001000B   [8]  FF FF FF FF FF FF FF FF
  can0  14FF0117   [8]  00 00 F0 FF FC FF 00 00
  can0  08F00200   [8]  FD FF FF FF FF FF FF FF
  can0  0CFF0200   [8]  00 01 FF FF FF 00 C1 9B
  can0  0CFF0500   [8]  FF FF FF FF FF FF FF FF
  can0  10F00300   [8]  DD 00 FF FF FF FC FF FF
  can0  14FF0600   [8]  FF 80 7F F7 FF FF FF FF
  can0  14FF0019   [8]  0F FF FF 01 14 FF FF BF
  can0  14FF02ED   [8]  F1 FF FF FF FF FF FF FF
  can0  10FF01E6   [8]  FF FF 7D CF FF FF 3F CC
  can0  14FEAE30   [8]  FF FF 00 00 FF FF FF FF
  can0  14FF02EC   [8]  03 FF FF FF CF F0 F3 FF
  can0  14FF0331   [8]  FF FF CF FF 1C FF FF FF
  can0  08F01D13   [8]  6C 7D 20 FF 10 8A F5 38
  can0  08F0090B   [8]  6C 7D 20 71 7D 80 7D FF
  can0  08FE6E0B   [8]  FF FE FF FE FF FE FF FE
  can0  08FF000B   [8]  00 00 FF FA 0C FF 6F CF
  can0  14FE6F0B   [8]  FF FF FF FF FF FF FF FF
  can0  14FF0347   [8]  00 FF 3F FF FF FF FF FF
  can0  0CFE6C17   [8]  FF FF FF FF 00 FE 00 FE
  can0  14FF010B   [8]  FF 00 3F FF F0 FF 7F FF
  can0  08F00200   [8]  FD FF FF FF FF FF FF FF
  can0  0CF00400   [8]  50 7D 84 FF FF 00 F6 7D
  can0  0CFF0300   [8]  7D FF FF FF FF FF FF FF
  can0  10FF0000   [8]  FC A8 61 FC F3 28 F3 FC
  can0  14FF020B   [8]  7D 7D 7D 7D 80 80 FF FF
  can0  14FF0000   [8]  FF FF FF 00 30 FF FF FF
  can0  14FF0217   [8]  FF FF FF FF FF FF FF FF
  can0  14FF1017   [8]  FF FF 00 00 FF FD FF FF
  can0  14FE5A2F   [8]  FF FF FF FF FF FF FF FF
  can0  10FF0021   [8]  82 00 00 00 FF 3F 4D C8
  can0  10FF0047   [8]  C1 3F FF FF FF FF FF FF
  can0  14FF0521   [8]  0C FF 40 F4 FC 3F 3F 00
  can0  14FF0531   [8]  FF FF FF FF FF FF FF FF
  can0  08F01D13   [8]  6C 7D 20 FF 10 8A F5 49
  can0  08F0090B   [8]  6C 7D 20 71 7D 80 7D FF
  can0  08FE6E0B   [8]  FF FE FF FE FF FE FF FE
  can0  08FF000B   [8]  00 00 FF FA 0C FF 7F FD
  can0  0CFF000B   [8]  FF FF FF FF 00 FF 30 D2
  can0  10FF0117   [8]  F0 FA F0 FF FF FF FF FF
  can0  14FE4F0B   [8]  FF FF FF FF FF FF FF FF
  can0  14FEF217   [8]  FF FF FF FF FF FF FF FF
  can0  14FF000B   [8]  FC 5F C1 C1 C1 FF 7F DD
  can0  08F00200   [8]  FD FF FF FF FF FF FF FF
  can0  0CFF0200   [8]  00 01 FF FF FF 00 D1 A9
  can0  18FF0400   [8]  03 C3 3F 03 CF 0D 9F 2E
  can0  0CFF0500   [8]  FF FF FF FF FF FF FF FF
  can0  18FF800B   [8]  FD 13 04 0F EC FF FF 03
  can0  14FEF100   [8]  FF FF FE 0C FF FF 1F FF
  can0  14FF0053   [8]  FF FF FF FF FF FF FF FF
  can0  14FF0030   [8]  F5 FF FF FF FF FF FF FF
  can0  08F01D13   [8]  6C 7D 20 FF 10 8A F5 5A
  can0  08F0090B   [8]  6C 7D 20 71 7D 80 7D FF
  can0  08FE6E0B   [8]  FF FE FF FE FF FE FF FE
  can0  08FF000B   [8]  00 00 FF FA 0C FF 8F 68
  can0  10FF010B   [8]  0B 0E 71 7D 71 7D 32 6D
  can0  0CFE6C17   [8]  FF FF FF FF 00 FE 00 FE
  can0  14FDC40B   [8]  FF 0B 5F FF FF FF FF FF
  can0  14FEBF0B   [8]  FF FE FE FE FE FE FF FF
  can0  08F00200   [8]  FD FF FF FF FF FF FF FF
  can0  0CF00400   [8]  50 7D 84 FF FF 00 F6 7D
  can0  0CFF0300   [8]  7D FF FF FF FF FF FF FF
  can0  10FF0100   [8]  FF 3F FF FF FF FF 06 FC
  can0  14F00000   [8]  FF 7D 7D FF FF FF FF 28
  can0  10FF00E6   [8]  FF FF FF FF FF FF FF FF
  can0  08F01D13   [8]  6C 7D 20 FF 10 8A F5 6B
  can0  08F0090B   [8]  6C 7D 20 71 7D 80 7D FF
  can0  08FE6E0B   [8]  FF FE FF FE FF FE FF FE
  can0  08FF000B   [8]  00 00 FF FA 0C FF 9F 5A
  can0  0CFF000B   [8]  FF FF FF FF 00 FF 40 4C
  can0  14D0FF17   [8]  FF FF FF FF FF FF FF FF
  can0  14F0010B   [8]  0F 00 FF FF FF 1C FF FF
  can0  08F00200   [8]  FD FF FF FF FF FF FF FF
  can0  0CFF0200   [8]  00 01 FF FF FF 00 E1 FF
  can0  0CFF0500   [8]  FF FF FF FF FF FF FF FF
  can0  14F00500   [8]  FF FF FF FF FF FF FF FF
  can0  14FF1100   [8]  3F F7 FF 00 7F 13 08 FD
  can0  10FF0019   [8]  FF FF 0F FF FF FF 02 FD
  can0  10FF01E6   [8]  FF FF 7D CF FF FF 4F 52
  can0  08F01D13   [8]  6C 7D 20 FF 10 8A F5 7C
  can0  08F0090B   [8]  6C 7D 20 71 7D 80 7D FF
  can0  08FE6E0B   [8]  FF FE FF FE FF FE FF FE
  can0  08FF000B   [8]  00 00 FF FA 0C FF AF 0C
  can0  1001000B   [8]  FF FF FF FF FF FF FF FF
  can0  0CFE6C17   [8]  FF FF FF FF 00 FE 00 FE
  can0  08F00200   [8]  FD FF FF FF FF FF FF FF
  can0  0CF00400   [8]  50 7D 84 FF FF 00 F6 7D
  can0  0CFF0300   [8]  7D FF FF FF FF FF FF FF
  can0  10F00300   [8]  DD 00 FF FF FF FC FF FF
  can0  14FEDF00   [8]  85 FF FF FF FF FF FF FF
  can0  14FF0E00   [8]  FF FF FF FF FF FF 00 FB
  can0  08F01D13   [8]  6C 7D 20 FF 10 8A F5 8D
  can0  08F0090B   [8]  6C 7D 20 71 7D 80 7D FF
  can0  08FE6E0B   [8]  FF FE FF FE FF FE FF FE
  can0  08FF000B   [8]  00 00 FF FA 0C FF BF 3E
  can0  0CFF000B   [8]  FF FF FF FF 00 FF 50 7E
  can0  14FEAE17   [8]  FF FF 00 00 FF FF 5F FF
  can0  08F00200   [8]  FD FF FF FF FF FF FF FF
  can0  0CFF0200   [8]  00 01 FF FF FF 00 F1 CD
  can0  0CFF0500   [8]  FF FF FF FF FF FF FF FF
  can0  10FF0000   [8]  FC A8 61 FC F3 28 F3 FC
  can0  14FF0D00   [8]  04 FF FB 07 00 3C 3F 3C
  can0  10FF0021   [8]  82 00 00 00 FF 3F 4D C8
  can0  10FF0047   [8]  C1 3F FF FF FF FF FF FF
  can0  08F01D13   [8]  6C 7D 20 FF 10 8A F5 9E
  can0  08F0090B   [8]  6C 7D 20 71 7D 80 7D FF
  can0  08FE6E0B   [8]  FF FE FF FE FF FE FF FE
  can0  08FF000B   [8]  00 00 FF FA 0C FF CF A0
  can0  0CFE6C17   [8]  FF FF FF FF 00 FE 00 FE
  can0  10FF0117   [8]  F0 FA F0 FF FF FF FF FF
  can0  08F00200   [8]  FD FF FF FF FF FF FF FF
  can0  0CF00400   [8]  50 7D 84 FF FF 00 F6 7D
  can0  0CFF0300   [8]  7D FF FF FF FF FF FF FF
  can0  14FF0A00   [8]  FF FF FF 00 00 FF FF BF
  can0  08F01D13   [8]  6C 7D 20 FF 10 8A F5 AF
  can0  08F0090B   [8]  6C 7D 20 71 7D 80 7D FF
  can0  08FE6E0B   [8]  FF FE FF FE FF FE FF FE
  can0  08FF000B   [8]  00 00 FF FA 0C FF DF 92
  can0  0CFF000B   [8]  FF FF FF FF 00 FF 60 28
  can0  10FF010B   [8]  DD 0F 71 7D 71 7D 32 6D
  can0  14FF0017   [8]  40 00 00 03 03 10 00 0C
  can0  08F00200   [8]  FD FF FF FF FF FF FF FF
  can0  0CFF0200   [8]  00 01 FF FF FF 00 01 58
  can0  0CFF0500   [8]  FF FF FF FF FF FF FF FF
  can0  10FF0100   [8]  FF 3F FF FF FF FF 06 FC
  can0  14FF0145   [8]  10 00 00 FF FF FF FF FF
  can0  14FF0900   [8]  FF FF FF FF FF FF FF FF
  can0  18F00100   [8]  FF FF FF FF 00 FF FF FF
  can0  14FEF200   [8]  FF FF 00 00 00 00 FF FF
  can0  10FF00E6   [8]  FF FF FF FF FF FF FF FF
  can0  08F01D13   [8]  6C 7D 20 FF 10 8A F5 A0
  can0  08F0090B   [8]  6C 7D 20 71 7D 80 7D FF
  can0  08FE6E0B   [8]  FF FE FF FE FF FE FF FE
  can0  08FF000B   [8]  00 00 FF FA 0C FF EF C4
  can0  0CFE6C17   [8]  FF FF FF FF 00 FE 00 FE
  can0  08F00200   [8]  FD FF FF FF FF FF FF FF
  can0  0CF00400   [8]  50 7D 84 FF FF 00 F6 7D
  can0  0CFF0300   [8]  7D FF FF FF FF FF FF FF
  can0  14FF0700   [8]  FF FF FF FF FF FF FF FF
  can0  14FF1600   [8]  FF FF FF FF FF FF FF FF
  can0  10FF0019   [8]  FF FF 0F FF FF FF 02 FD
  can0  14FED521   [8]  FF FF FC FF FF FF FF FF
  can0  14FF0131   [8]  00 00 E0 CC 00 00 00 00
  can0  14FF0231   [8]  FC FF FF FF FF FF FF 3F
  can0  14FF0721   [8]  64 C8 F0 FF FF FF FF FF
  can0  14FF0821   [8]  EA 38 01 FF CF 00 00 FF
  can0  08F01D13   [8]  6C 7D 20 FF 10 8A F5 C1
  can0  08F0090B   [8]  6C 7D 20 71 7D 80 7D FF
  can0  08FE6E0B   [8]  FF FE FF FE FF FE FF FE
  can0  08FF000B   [8]  00 00 FF FA 0C FF FF F6
  can0  0CFF000B   [8]  FF FF FF FF 00 FF 70 1A
  can0  1001000B   [8]  FF FF FF FF FF FF FF FF
  can0  14FF0117   [8]  00 00 F0 FF FC FF 00 00
  can0  08F00200   [8]  FD FF FF FF FF FF FF FF
  can0  0CFF0200   [8]  00 01 FF FF FF 00 11 6A
  can0  0CFF0500   [8]  FF FF FF FF FF FF FF FF
  can0  10F00300   [8]  DD 00 FF FF FF FC FF FF
  can0  14FF0600   [8]  FF 80 7F F7 FF FF FF FF
  can0  14FF0019   [8]  0F FF FF 01 14 FF FF BF
  can0  14FF02ED   [8]  F1 FF FF FF FF FF FF FF
  can0  10FF01E6   [8]  FF FF 7D CF FF FF 5F 60
  can0  14FEAE30   [8]  FF FF 00 00 FF FF FF FF
  can0  14FF02EC   [8]  03 FF FF FF CF F0 F3 FF
  can0  14FF0331   [8]  FF FF CF FF 1C FF FF FF
  can0  08F01D13   [8]  6C 7D 20 FF 10 8A F5 D2
  can0  08F0090B   [8]  6C 7D 20 71 7D 80 7D FF
  can0  08FE6E0B   [8]  FF FE FF FE FF FE FF FE
  can0  08FF000B   [8]  00 00 FF FA 0C FF 0F 63
  can0  14FE6F0B   [8]  FF FF FF FF FF FF FF FF
  can0  0CFE6C17   [8]  FF FF FF FF 00 FE 00 FE
  can0  14FF010B   [8]  FF 00 3F FF F0 FF 7F FF
  can0  14FF0217   [8]  FF FF FF FF FF FF FF FF
  can0  08F00200   [8]  FD FF FF FF FF FF FF FF
  can0  0CF00400   [8]  50 7D 84 FF FF 00 F6 7D
  can0  0CFF0300   [8]  7D FF FF FF FF FF FF FF
  can0  10FF0000   [8]  FC A8 61 FC F3 28 F3 FC
  can0  14FF020B   [8]  7D 7D 7D 7D 80 80 FF FF
  can0  14FF0000   [8]  FF FF FF 00 30 FF FF FF
  can0  14FF0347   [8]  00 FF 3F FF FF FF FF FF
  can0  14FF1017   [8]  FF FF 00 00 FF FD FF FF
  can0  14FE5A2F   [8]  FF FF FF FF FF FF FF FF
  can0  18FF8013   [8]  FD 17 04 0F 04 00 00 03
  can0  10FF0021   [8]  82 00 00 00 FF 3F 4D C8
  can0  10FF0047   [8]  C1 3F FF FF FF FF FF FF
  can0  14FF0521   [8]  0C FF 40 F4 FC 3F 3F 00
  can0  14FF0531   [8]  FF FF FF FF FF FF FF FF
  can0  08F01D13   [8]  6C 7D 20 FF 10 8A F5 E3
  can0  08F0090B   [8]  6C 7D 20 71 7D 80 7D FF
  can0  08FE6E0B   [8]  FF FE FF FE FF FE FF FE
  can0  08FF000B   [8]  00 00 FF FA 0C FF 1F 51
  can0  0CFF000B   [8]  FF FF FF FF 00 FF 80 8F
  can0  10FF0117   [8]  F0 FA F0 FF FF FF FF FF
  can0  14FE4F0B   [8]  FF FF FF FF FF FF FF FF
  can0  14FEF217   [8]  FF FF FF FF FF FF FF FF
  can0  14FF000B   [8]  FC 5F C1 C1 C1 FF 8F 48
  can0  08F00200   [8]  FD FF FF FF FF FF FF FF
  can0  0CFF0200   [8]  00 01 FF FF FF 00 21 3C
  can0  18FF0400   [8]  03 C3 3F 03 CF 0D AF 78
  can0  0CFF0500   [8]  FF FF FF FF FF FF FF FF
  can0  14FEF100   [8]  FF FF FE 0C FF FF 1F FF
  can0  14FF0053   [8]  FF FF FF FF FF FF FF FF
  can0  14FF0030   [8]  F5 FF FF FF FF FF FF FF
  can0  08F01D13   [8]  6C 7D 20 FF 10 8A F5 F4
  can0  08F0090B   [8]  6C 7D 20 71 7D 80 7D FF
  can0  08FE6E0B   [8]  FF FE FF FE FF FE FF FE
  can0  08FF000B   [8]  00 00 FF FA 0C FF 2F 07
  can0  10FF010B   [8]  8E 00 71 7D 71 7D 32 6D
  can0  14FDC40B   [8]  FF 0B 5F FF FF FF FF FF
  can0  0CFE6C17   [8]  FF FF FF FF 00 FE 00 FE
  can0  14FEBF0B   [8]  FF FE FE FE FE FE FF FF
  can0  08F00200   [8]  FD FF FF FF FF FF FF FF
  can0  0CF00400   [8]  50 7D 84 FF FF 00 F6 7D
  can0  0CFF0300   [8]  7D FF FF FF FF FF FF FF
  can0  10FF0100   [8]  FF 3F FF FF FF FF 06 FC
  can0  14F00000   [8]  FF 7D 7D FF FF FF FF 28
  can0  10FF00E6   [8]  FF FF FF FF FF FF FF FF
  can0  08F01D13   [8]  6C 7D 20 FF 10 8A F5 05
  can0  08F0090B   [8]  6C 7D 20 71 7D 80 7D FF
  can0  08FE6E0B   [8]  FF FE FF FE FF FE FF FE
  can0  08FF000B   [8]  00 00 FF FA 0C FF 3F 35
  can0  0CFF000B   [8]  FF FF FF FF 00 FF 90 BD
  can0  14D0FF17   [8]  FF FF FF FF FF FF FF FF
  can0  14F0010B   [8]  0F 00 FF FF FF 1C FF FF
  can0  08F00200   [8]  FD FF FF FF FF FF FF FF
  can0  0CFF0200   [8]  00 01 FF FF FF 00 31 0E
  can0  0CFF0500   [8]  FF FF FF FF FF FF FF FF
  can0  14F00500   [8]  FF FF FF FF FF FF FF FF
  can0  14FF1100   [8]  3F F7 FF 00 7F 13 08 FD
  can0  10FF0019   [8]  FF FF 0F FF FF FF 02 FD
  can0  10FF01E6   [8]  FF FF 7D CF FF FF 6F 36
  can0  08F01D13   [8]  6C 7D 20 FF 10 8A F5 16
  can0  08F0090B   [8]  6C 7D 20 71 7D 80 7D FF
  can0  08FE6E0B   [8]  FF FE FF FE FF FE FF FE
  can0  08FF000B   [8]  00 00 FF FA 0C FF 4F AB
  can0  1001000B   [8]  FF FF FF FF FF FF FF FF
  can0  0CFE6C17   [8]  FF FF FF FF 00 FE 00 FE
  can0  08F00200   [8]  FD FF FF FF FF FF FF FF
  can0  0CF00400   [8]  50 7D 84 FF FF 00 F6 7D
  can0  0CFF0300   [8]  7D FF FF FF FF FF FF FF
  can0  10F00300   [8]  DD 00 FF FF FF FC FF FF
  can0  14FEDF00   [8]  85 FF FF FF FF FF FF FF
  can0  14FF0E00   [8]  FF FF FF FF FF FF 00 FB
  can0  08F01D13   [8]  6C 7D 20 FF 10 8A F5 27
  can0  08F0090B   [8]  6C 7D 20 71 7D 80 7D FF
  can0  08FE6E0B   [8]  FF FE FF FE FF FE FF FE
  can0  08FF000B   [8]  00 00 FF FA 0C FF 5F 99
  can0  0CFF000B   [8]  FF FF FF FF 00 FF A0 EB
  can0  14FEAE17   [8]  FF FF 00 00 FF FF 5F FF
  can0  08F00200   [8]  FD FF FF FF FF FF FF FF
  can0  0CFF0200   [8]  00 01 FF FF FF 00 41 90
  can0  0CFF0500   [8]  FF FF FF FF FF FF FF FF
  can0  10FF0000   [8]  FC A8 61 FC F3 28 F3 FC
  can0  14FF0D00   [8]  04 FF FB 07 00 3C 3F 3C
  can0  10FF0021   [8]  82 00 00 00 FF 3F 4D C8
  can0  10FF0047   [8]  C1 3F FF FF FF FF FF FF
  can0  08F01D13   [8]  6C 7D 20 FF 10 8A F5 38
  can0  08F0090B   [8]  6C 7D 20 71 7D 80 7D FF
  can0  08FE6E0B   [8]  FF FE FF FE FF FE FF FE
  can0  08FF000B   [8]  00 00 FF FA 0C FF 6F CF
  can0  0CFE6C17   [8]  FF FF FF FF 00 FE 00 FE
  can0  10FF0117   [8]  F0 FA F0 FF FF FF FF FF
  can0  08F00200   [8]  FD FF FF FF FF FF FF FF
  can0  0CF00400   [8]  50 7D 84 FF FF 00 F6 7D
  can0  0CFF0300   [8]  7D FF FF FF FF FF FF FF
  can0  14FF0A00   [8]  FF FF FF 00 00 FF FF BF
  can0  08F01D13   [8]  6C 7D 20 FF 10 8A F5 49
  can0  08F0090B   [8]  6C 7D 20 71 7D 80 7D FF
  can0  08FE6E0B   [8]  FF FE FF FE FF FE FF FE
  can0  08FF000B   [8]  00 00 FF FA 0C FF 7F FD
  can0  0CFF000B   [8]  FF FF FF FF 00 FF B0 D9
  can0  10FF010B   [8]  58 01 71 7D 71 7D 32 6D
  can0  14FF0017   [8]  40 00 00 03 03 10 00 0C
  can0  08F00200   [8]  FD FF FF FF FF FF FF FF
  can0  0CFF0200   [8]  00 01 FF FF FF 00 51 A2
  can0  0CFF0500   [8]  FF FF FF FF FF FF FF FF
  can0  10FF0100   [8]  FF 3F FF FF FF FF 06 FC
  can0  14FF0145   [8]  10 00 00 FF FF FF FF FF
  can0  14FF0900   [8]  FF FF FF FF FF FF FF FF
  can0  18F00100   [8]  FF FF FF FF 00 FF FF FF
  can0  14FEF200   [8]  FF FF 00 00 00 00 FF FF
  can0  10FF00E6   [8]  FF FF FF FF FF FF FF FF
  can0  08F01D13   [8]  6C 7D 20 FF 10 8A F5 5A
  can0  08F0090B   [8]  6C 7D 20 71 7D 80 7D FF
  can0  08FE6E0B   [8]  FF FE FF FE FF FE FF FE
  can0  08FF000B   [8]  00 00 FF FA 0C FF 8F 68
  can0  0CFE6C17   [8]  FF FF FF FF 00 FE 00 FE
  can0  08F00200   [8]  FD FF FF FF FF FF FF FF
  can0  0CF00400   [8]  50 7D 84 FF FF 00 F6 7D
  can0  0CFF0300   [8]  7D FF FF FF FF FF FF FF
  can0  14FF0700   [8]  FF FF FF FF FF FF FF FF
  can0  14FF1600   [8]  FF FF FF FF FF FF FF FF
  can0  10FF0019   [8]  FF FF 0F FF FF FF 02 FD
  can0  14FED521   [8]  FF FF FC FF FF FF FF FF
  can0  14FF0131   [8]  00 00 E0 CC 00 00 00 00
  can0  14FF0231   [8]  FC FF FF FF FF FF FF 3F
  can0  14FF0721   [8]  32 C9 F0 FF FF FF FF FF
  can0  14FF0821   [8]  66 39 01 FF CF 00 00 FF
  can0  08F01D13   [8]  6C 7D 20 FF 10 8A F5 6B
  can0  08F0090B   [8]  6C 7D 20 71 7D 80 7D FF
  can0  08FE6E0B   [8]  FF FE FF FE FF FE FF FE
  can0  08FF000B   [8]  00 00 FF FA 0C FF 9F 5A
  can0  0CFF000B   [8]  FF FF FF FF 00 FF C0 47
  can0  1001000B   [8]  FF FF FF FF FF FF FF FF
  can0  14FF0117   [8]  00 00 F0 FF FC FF 00 00
  can0  08F00200   [8]  FD FF FF FF FF FF FF FF
  can0  0CFF0200   [8]  00 01 FF FF FF 00 61 F4
  can0  0CFF0500   [8]  FF FF FF FF FF FF FF FF
  can0  10F00300   [8]  DD 00 FF FF FF FC FF FF
  can0  14FF0600   [8]  FF 80 7F F7 FF FF FF FF
  can0  14FF0019   [8]  0F FF FF 01 14 FF FF BF
  can0  14FF02ED   [8]  F1 FF FF FF FF FF FF FF
  can0  10FF01E6   [8]  FF FF 7D CF FF FF 7F 04
  can0  14FEAE30   [8]  FF FF 00 00 FF FF FF FF
  can0  14FF02EC   [8]  03 FF FF FF CF F0 F3 FF
  can0  18FF8017   [8]  FD 25 04 0F 4C B8 09 03
  can0  14FF0331   [8]  FF FF CF FF 1C FF FF FF
  can0  08F01D13   [8]  6C 7D 20 FF 10 8A F5 7C
  can0  08F0090B   [8]  6C 7D 20 71 7D 80 7D FF
  can0  08FE6E0B   [8]  FF FE FF FE FF FE FF FE
  can0  08FF000B   [8]  00 00 FF FA 0C FF AF 0C
  can0  14FE6F0B   [8]  FF FF FF FF FF FF FF FF
  can0  14FF0347   [8]  00 FF 3F FF FF FF FF FF
  can0  0CFE6C17   [8]  FF FF FF FF 00 FE 00 FE
  can0  14FF010B   [8]  FF 00 3F FF F0 FF 7F FF
  can0  08F00200   [8]  FD FF FF FF FF FF FF FF
  can0  0CF00400   [8]  50 7D 84 FF FF 00 F6 7D
  can0  0CFF0300   [8]  7D FF FF FF FF FF FF FF
  can0  10FF0000   [8]  FC A8 61 FC F3 28 F3 FC
  can0  14FF020B   [8]  7D 7D 7D 7D 80 80 FF FF
  can0  14FF0000   [8]  FF FF FF 00 30 FF FF FF
  can0  14FF0217   [8]  FF FF FF FF FF FF FF FF
  can0  14FF1017   [8]  FF FF 00 00 FF FD FF FF
  can0  14FE5A2F   [8]  FF FF FF FF FF FF FF FF
  can0  10FF0021   [8]  82 00 00 00 FF 3F 4D C8
  can0  10FF0047   [8]  C1 3F FF FF FF FF FF FF
  can0  14FF0521   [8]  0C FF 40 F4 FC 3F 3F 00
  can0  14FF0531   [8]  FF FF FF FF FF FF FF FF
  can0  08F01D13   [8]  6C 7D 20 FF 10 8A F5 8D
  can0  08F0090B   [8]  6C 7D 20 71 7D 80 7D FF
  can0  08FE6E0B   [8]  FF FE FF FE FF FE FF FE
  can0  08FF000B   [8]  00 00 FF FA 0C FF BF 3E
  can0  0CFF000B   [8]  FF FF FF FF 00 FF D0 75
  can0  10FF0117   [8]  F0 FA F0 FF FF FF FF FF
  can0  14FE4F0B   [8]  FF FF FF FF FF FF FF FF
  can0  14FEF217   [8]  FF FF FF FF FF FF FF FF
  can0  14FF000B   [8]  FC 5F C1 C1 C1 FF 9F 7A
  can0  08F00200   [8]  FD FF FF FF FF FF FF FF
  can0  0CFF0200   [8]  00 01 FF FF FF 00 71 C6
  can0  18FF0400   [8]  03 C3 3F 03 CF 0D BF 4A
  can0  0CFF0500   [8]  FF FF FF FF FF FF FF FF
  can0  14FEF100   [8]  FF FF FE 0C FF FF 1F FF
  can0  14FF0053   [8]  FF FF FF FF FF FF FF FF
  can0  14FF0030   [8]  F5 FF FF FF FF FF FF FF
  can0  08F01D13   [8]  6C 7D 20 FF 10 8A F5 9E
  can0  08F0090B   [8]  6C 7D 20 71 7D 80 7D FF
  can0  08FE6E0B   [8]  FF FE FF FE FF FE FF FE
  can0  08FF000B   [8]  00 00 FF FA 0C FF CF A0
  can0  10FF010B   [8]  B9 02 71 7D 71 7D 32 6D
  can0  0CFE6C17   [8]  FF FF FF FF 00 FE 00 FE
  can0  14FDC40B   [8]  FF 0B 5F FF FF FF FF FF
  can0  14FEBF0B   [8]  FF FE FE FE FE FE FF FF
  can0  08F00200   [8]  FD FF FF FF FF FF FF FF
  can0  0CF00400   [8]  50 7D 84 FF FF 00 F6 7D
  can0  0CFF0300   [8]  7D FF FF FF FF FF FF FF
  can0  10FF0100   [8]  FF 3F FF FF FF FF 06 FC
  can0  14F00000   [8]  FF 7D 7D FF FF FF FF 28
  can0  10FF00E6   [8]  FF FF FF FF FF FF FF FF
  can0  08F01D13   [8]  6C 7D 20 FF 10 8A F5 AF
  can0  08F0090B   [8]  6C 7D 20 71 7D 80 7D FF
  can0  08FE6E0B   [8]  FF FE FF FE FF FE FF FE
  can0  08FF000B   [8]  00 00 FF FA 0C FF DF 92
  can0  0CFF000B   [8]  FF FF FF FF 00 FF E0 23
  can0  14D0FF17   [8]  FF FF FF FF FF FF FF FF
  can0  14F0010B   [8]  0F 00 FF FF FF 1C FF FF
  can0  08F00200   [8]  FD FF FF FF FF FF FF FF
  can0  0CFF0200   [8]  00 01 FF FF FF 00 81 53
  can0  0CFF0500   [8]  FF FF FF FF FF FF FF FF
  can0  14F00500   [8]  FF FF FF FF FF FF FF FF
  can0  14FF1100   [8]  3F F7 FF 00 7F 13 08 FD
  can0  10FF0019   [8]  FF FF 0F FF FF FF 02 FD
  can0  10FF01E6   [8]  FF FF 7D CF FF FF 8F 91
  can0  08F01D13   [8]  6C 7D 20 FF 10 8A F5 A0
  can0  08F0090B   [8]  6C 7D 20 71 7D 80 7D FF
  can0  08FE6E0B   [8]  FF FE FF FE FF FE FF FE
  can0  08FF000B   [8]  00 00 FF FA 0C FF EF C4
  can0  1001000B   [8]  FF FF FF FF FF FF FF FF
  can0  10FECA0B   [8]  C1 FF 12 F0 ED 06 FF FF
  can0  0CFE6C17   [8]  FF FF FF FF 00 FE 00 FE
  can0  08F00200   [8]  FD FF FF FF FF FF FF FF
  can0  0CF00400   [8]  50 7D 84 FF FF 00 F6 7D
  can0  0CFF0300   [8]  7D FF FF FF FF FF FF FF
  can0  10F00300   [8]  DD 00 FF FF FF FC FF FF
  can0  14FEDF00   [8]  85 FF FF FF FF FF FF FF
  can0  14FF0E00   [8]  FF FF FF FF FF FF 00 FB
  can0  08F01D13   [8]  6C 7D 20 FF 10 8A F5 C1
  can0  08F0090B   [8]  6C 7D 20 71 7D 80 7D FF
  can0  08FE6E0B   [8]  FF FE FF FE FF FE FF FE
  can0  08FF000B   [8]  00 00 FF FA 0C FF FF F6
  can0  0CFF000B   [8]  FF FF FF FF 00 FF F0 11
  can0  14FEAE17   [8]  FF FF 00 00 FF FF 5F FF
  can0  08F00200   [8]  FD FF FF FF FF FF FF FF
  can0  0CFF0200   [8]  00 01 FF FF FF 00 91 61
  can0  0CFF0500   [8]  FF FF FF FF FF FF FF FF
  can0  10FF0000   [8]  FC A8 61 FC F3 28 F3 FC
  can0  14FF0D00   [8]  04 FF FB 07 00 3C 3F 3C
  can0  10FF0021   [8]  82 00 00 00 FF 3F 4D C8
  can0  10FF0047   [8]  C1 3F FF FF FF FF FF FF
  can0  08F01D13   [8]  6C 7D 20 FF 10 8A F5 D2
  can0  08F0090B   [8]  6C 7D 20 71 7D 80 7D FF
  can0  08FE6E0B   [8]  FF FE FF FE FF FE FF FE
  can0  08FF000B   [8]  00 00 FF FA 0C FF 0F 63
  can0  10FECA25   [8]  00 FF C8 FF FF 25 FF FF
  can0  0CFE6C17   [8]  FF FF FF FF 00 FE 00 FE
  can0  10FECA98   [8]  00 FF FE 2B 9F 01 FF FF
  can0  10FF0117   [8]  F0 FA F0 FF FF FF FF FF
  can0  08F00200   [8]  FD FF FF FF FF FF FF FF
  can0  0CF00400   [8]  50 7D 84 FF FF 00 F6 7D
  can0  0CFF0300   [8]  7D FF FF FF FF FF FF FF
  can0  14FF0A00   [8]  FF FF FF 00 00 FF FF BF
  can0  08F01D13   [8]  6C 7D 20 FF 10 8A F5 E3
  can0  08F0090B   [8]  6C 7D 20 71 7D 80 7D FF
  can0  08FE6E0B   [8]  FF FE FF FE FF FE FF FE
  can0  08FF000B   [8]  00 00 FF FA 0C FF 1F 51
  can0  0CFF000B   [8]  FF FF FF FF 00 FF 00 84
  can0  10FF010B   [8]  6F 03 71 7D 71 7D 32 6D
  can0  14FF0017   [8]  40 00 00 03 03 10 00 0C
  can0  08F00200   [8]  FD FF FF FF FF FF FF FF
  can0  0CFF0200   [8]  00 01 FF FF FF 00 A1 37
  can0  0CFF0500   [8]  FF FF FF FF FF FF FF FF
  can0  10FF0100   [8]  FF 3F FF FF FF FF 06 FC
  can0  14FF0145   [8]  10 00 00 FF FF FF FF FF
  can0  14FF0900   [8]  FF FF FF FF FF FF FF FF
  can0  18F00100   [8]  FF FF FF FF 00 FF FF FF
  can0  14FEF200   [8]  FF FF 00 00 00 00 FF FF
  can0  10FF00E6   [8]  FF FF FF FF FF FF FF FF
  can0  08F01D13   [8]  6C 7D 20 FF 10 8A F5 F4
  can0  08F0090B   [8]  6C 7D 20 71 7D 80 7D FF
  can0  08FE6E0B   [8]  FF FE FF FE FF FE FF FE
  can0  08FF000B   [8]  00 00 FF FA 0C FF 2F 07
  can0  0CFE6C17   [8]  FF FF FF FF 00 FE 00 FE
  can0  08F00200   [8]  FD FF FF FF FF FF FF FF
  can0  0CF00400   [8]  50 7D 84 FF FF 00 F6 7D
  can0  0CFF0300   [8]  7D FF FF FF FF FF FF FF
  can0  14FF0700   [8]  FF FF FF FF FF FF FF FF
  can0  14FF1600   [8]  FF FF FF FF FF FF FF FF
  can0  10FF0019   [8]  FF FF 0F FF FF FF 02 FD
  can0  14FED521   [8]  FF FF FC FF FF FF FF FF
  can0  14FF0131   [8]  00 00 E0 CC 00 00 00 00
  can0  14FF0231   [8]  FC FF FF FF FF FF FF 3F
  can0  14FF0721   [8]  CA CA F0 FF FF FF FF FF
  can0  14FF0821   [8]  4C 3A 01 FF CF 00 00 FF
  can0  08F01D13   [8]  6C 7D 20 FF 10 8A F5 05
  can0  08F0090B   [8]  6C 7D 20 71 7D 80 7D FF
  can0  08FE6E0B   [8]  FF FE FF FE FF FE FF FE
  can0  08FF000B   [8]  00 00 FF FA 0C FF 3F 35
  can0  0CFF000B   [8]  FF FF FF FF 00 FF 10 B6
  can0  1001000B   [8]  FF FF FF FF FF FF FF FF
  can0  14FF0117   [8]  00 00 F0 FF FC FF 00 00
  can0  18FF8025   [8]  FD 00 04 0F 30 00 FF 03
  can0  08F00200   [8]  FD FF FF FF FF FF FF FF
  can0  0CFF0200   [8]  00 01 FF FF FF 00 B1 05
  can0  0CFF0500   [8]  FF FF FF FF FF FF FF FF
  can0  10F00300   [8]  DD 00 FF FF FF FC FF FF
  can0  14FF0600   [8]  FF 80 7F F7 FF FF FF FF
  can0  14FF0019   [8]  0F FF FF 01 14 FF FF BF
  can0  14FF02ED   [8]  F1 FF FF FF FF FF FF FF
  can0  10FF01E6   [8]  FF FF 7D CF FF FF 9F A3
  can0  14FEAE30   [8]  FF FF 00 00 FF FF FF FF
  can0  14FF02EC   [8]  03 FF FF FF CF F0 F3 FF
  can0  14FF0331   [8]  FF FF CF FF 1C FF FF FF
  can0  08F01D13   [8]  6C 7D 20 FF 10 8A F5 16
  can0  08F0090B   [8]  6C 7D 20 71 7D 80 7D FF
  can0  08FE6E0B   [8]  FF FE FF FE FF FE FF FE
  can0  08FF000B   [8]  00 00 FF FA 0C FF 4F AB
  can0  14FE6F0B   [8]  FF FF FF FF FF FF FF FF
  can0  0CFE6C17   [8]  FF FF FF FF 00 FE 00 FE
  can0  14FF010B   [8]  FF 00 3F FF F0 FF 7F FF
  can0  14FF0217   [8]  FF FF FF FF FF FF FF FF
  can0  08F00200   [8]  FD FF FF FF FF FF FF FF
  can0  0CF00400   [8]  50 7D 84 FF FF 00 F6 7D
  can0  0CFF0300   [8]  7D FF FF FF FF FF FF FF
  can0  10FF0000   [8]  FC A8 61 FC F3 28 F3 FC
  can0  14FF020B   [8]  7D 7D 7D 7D 80 80 FF FF
  can0  14FF0000   [8]  FF FF FF 00 30 FF FF FF
  can0  14FF0347   [8]  00 FF 3F FF FF FF FF FF
  can0  14FF1017   [8]  FF FF 00 00 FF FD FF FF
  can0  10FECA17   [8]  00 FF 54 00 05 4A FF FF
  can0  14FE5A2F   [8]  FF FF FF FF FF FF FF FF
  can0  10FF0021   [8]  82 00 00 00 FF 3F 4D C8
  can0  10FF0047   [8]  C1 3F FF FF FF FF FF FF
  can0  14FF0521   [8]  0C FF 40 F4 FC 3F 3F 00
  can0  14FF0531   [8]  FF FF FF FF FF FF FF FF
  can0  08F01D13   [8]  6C 7D 20 FF 10 8A F5 27
  can0  08F0090B   [8]  6C 7D 20 71 7D 80 7D FF
  can0  08FE6E0B   [8]  FF FE FF FE FF FE FF FE
  can0  08FF000B   [8]  00 00 FF FA 0C FF 5F 99
  can0  0CFF000B   [8]  FF FF FF FF 00 FF 20 E0
  can0  10FF0117   [8]  F0 FA F0 FF FF FF FF FF
  can0  14FE4F0B   [8]  FF FF FF FF FF FF FF FF
  can0  14FEF217   [8]  FF FF FF FF FF FF FF FF
  can0  14FF000B   [8]  FC 5F C1 C1 C1 FF AF 2C
  can0  08F00200   [8]  FD FF FF FF FF FF FF FF
  can0  0CFF0200   [8]  00 01 FF FF FF 00 C1 9B
  can0  18FF0400   [8]  03 C3 3F 03 CF 0D CF D4
  can0  0CFF0500   [8]  FF FF FF FF FF FF FF FF
  can0  14FEF100   [8]  FF FF FE 0C FF FF 1F FF
  can0  14FF0053   [8]  FF FF FF FF FF FF FF FF
  can0  14FF0030   [8]  F5 FF FF FF FF FF FF FF
  can0  08F01D13   [8]  6C 7D 20 FF 10 8A F5 38
  can0  08F0090B   [8]  6C 7D 20 71 7D 80 7D FF
  can0  08FE6E0B   [8]  FF FE FF FE FF FE FF FE
  can0  08FF000B   [8]  00 00 FF FA 0C FF 6F CF
  can0  10FF010B   [8]  E0 04 71 7D 71 7D 32 6D
  can0  14FDC40B   [8]  FF 0B 5F FF FF FF FF FF
  can0  0CFE6C17   [8]  FF FF FF FF 00 FE 00 FE
  can0  14FEBF0B   [8]  FF FE FE FE FE FE FF FF
  can0  08F00200   [8]  FD FF FF FF FF FF FF FF
  can0  0CF00400   [8]  50 7D 84 FF FF 00 F6 7D
  can0  0CFF0300   [8]  7D FF FF FF FF FF FF FF
  can0  10FF0100   [8]  FF 3F FF FF FF FF 06 FC
  can0  14F00000   [8]  FF 7D 7D FF FF FF FF 28
  can0  10FF00E6   [8]  FF FF FF FF FF FF FF FF
  can0  08F01D13   [8]  6C 7D 20 FF 10 8A F5 49
  can0  08F0090B   [8]  6C 7D 20 71 7D 80 7D FF
  can0  08FE6E0B   [8]  FF FE FF FE FF FE FF FE
  can0  08FF000B   [8]  00 00 FF FA 0C FF 7F FD
  can0  0CFF000B   [8]  FF FF FF FF 00 FF 30 D2
  can0  14D0FF17   [8]  FF FF FF FF FF FF FF FF
  can0  14F0010B   [8]  0F 00 FF FF FF 1C FF FF
  can0  08F00200   [8]  FD FF FF FF FF FF FF FF
  can0  0CFF0200   [8]  00 01 FF FF FF 00 D1 A9
  can0  0CFF0500   [8]  FF FF FF FF FF FF FF FF
  can0  14F00500   [8]  FF FF FF FF FF FF FF FF
  can0  14FF1100   [8]  3F F7 FF 00 7F 13 08 FD
  can0  10FF0019   [8]  FF FF 0F FF FF FF 02 FD
  can0  10FF01E6   [8]  FF FF 7D CF FF FF AF F5
  can0  08F01D13   [8]  6C 7D 20 FF 10 8A F5 5A
  can0  08F0090B   [8]  6C 7D 20 71 7D 80 7D FF
  can0  08FE6E0B   [8]  FF FE FF FE FF FE FF FE
  can0  08FF000B   [8]  00 00 FF FA 0C FF 8F 68
  can0  1001000B   [8]  FF FF FF FF FF FF FF FF
  can0  0CFE6C17   [8]  FF FF FF FF 00 FE 00 FE
  can0  08F00200   [8]  FD FF FF FF FF FF FF FF
  can0  0CF00400   [8]  50 7D 84 FF FF 00 F6 7D
  can0  0CFF0300   [8]  7D FF FF FF FF FF FF FF
  can0  10F00300   [8]  DD 00 FF FF FF FC FF FF
  can0  14FEDF00   [8]  85 FF FF FF FF FF FF FF
  can0  14FF0E00   [8]  FF FF FF FF FF FF 00 FB
  can0  08F01D13   [8]  6C 7D 20 FF 10 8A F5 6B
  can0  08F0090B   [8]  6C 7D 20 71 7D 80 7D FF
  can0  08FE6E0B   [8]  FF FE FF FE FF FE FF FE
  can0  08FF000B   [8]  00 00 FF FA 0C FF 9F 5A
  can0  0CFF000B   [8]  FF FF FF FF 00 FF 40 4C
  can0  14FEAE17   [8]  FF FF 00 00 FF FF 5F FF
  can0  08F00200   [8]  FD FF FF FF FF FF FF FF
  can0  0CFF0200   [8]  00 01 FF FF FF 00 E1 FF
  can0  0CFF0500   [8]  FF FF FF FF FF FF FF FF
  can0  10FF0000   [8]  FC A8 61 FC F3 28 F3 FC
  can0  14FF0D00   [8]  04 FF FB 07 00 3C 3F 3C
  can0  10FF0021   [8]  82 00 00 00 FF 3F 4D C8
  can0  10FF0047   [8]  C1 3F FF FF FF FF FF FF
  can0  08F01D13   [8]  6C 7D 20 FF 10 8A F5 7C
  can0  08F0090B   [8]  6C 7D 20 71 7D 80 7D FF
  can0  08FE6E0B   [8]  FF FE FF FE FF FE FF FE
  can0  08FF000B   [8]  00 00 FF FA 0C FF AF 0C
  can0  0CFE6C17   [8]  FF FF FF FF 00 FE 00 FE
  can0  10FF0117   [8]  F0 FA F0 FF FF FF FF FF
  can0  08F00200   [8]  FD FF FF FF FF FF FF FF
  can0  0CF00400   [8]  50 7D 84 FF FF 00 F6 7D
  can0  0CFF0300   [8]  7D FF FF FF FF FF FF FF
  can0  14FF0A00   [8]  FF FF FF 00 00 FF FF BF
  can0  08F01D13   [8]  6C 7D 20 FF 10 8A F5 8D
  can0  08F0090B   [8]  6C 7D 20 71 7D 80 7D FF
  can0  08FE6E0B   [8]  FF FE FF FE FF FE FF FE
  can0  08FF000B   [8]  00 00 FF FA 0C FF BF 3E
  can0  0CFF000B   [8]  FF FF FF FF 00 FF 50 7E
  can0  10FF010B   [8]  36 05 71 7D 71 7D 32 6D
  can0  14FF0017   [8]  40 00 00 03 03 10 00 0C
  can0  08F00200   [8]  FD FF FF FF FF FF FF FF
  can0  0CFF0200   [8]  00 01 FF FF FF 00 F1 CD
  can0  1CECFF00   [8]  20 12 00 03 FF CA FE 00
  can0  0CFF0500   [8]  FF FF FF FF FF FF FF FF
  can0  14FF0145   [8]  10 00 00 FF FF FF FF FF
  can0  10FF0100   [8]  FF 3F FF FF FF FF 06 FC
  can0  14FF0900   [8]  FF FF FF FF FF FF FF FF
  can0  18F00100   [8]  FF FF FF FF 00 FF FF FF
  can0  14FEF200   [8]  FF FF 00 00 00 00 FF FF
  can0  18FEEF00   [8]  FF FF FF FF FF FF FF FE
  can0  18FEC100   [8]  00 00 00 00 00 00 00 00
  can0  18FEF500   [8]  FF FF FF 8A 24 FF FF FF
  can0  10FF00E6   [8]  FF FF FF FF FF FF FF FF
  can0  18FF7400   [8]  00 00 FF FF FF FF FF FF
  can0  08F01D13   [8]  6C 7D 20 FF 10 8A F5 9E
  can0  08F0090B   [8]  6C 7D 20 71 7D 80 7D FF
  can0  08FE6E0B   [8]  FF FE FF FE FF FE FF FE
  can0  08FF000B   [8]  00 00 FF FA 0C FF CF A0
  can0  0CFE6C17   [8]  FF FF FF FF 00 FE 00 FE
  can0  08F00200   [8]  FD FF FF FF FF FF FF FF
  can0  0CF00400   [8]  50 7D 84 FF FF 00 F6 7D
  can0  0CFF0300   [8]  7D FF FF FF FF FF FF FF
  can0  14FF0700   [8]  FF FF FF FF FF FF FF FF
  can0  14FF1600   [8]  FF FF FF FF FF FF FF FF
  can0  18FF8000   [8]  FD 0B 04 0F 04 21 00 03
  can0  10FF0019   [8]  FF FF 0F FF FF FF 02 FD
  can0  14FED521   [8]  FF FF FC FF FF FF FF FF
  can0  14FF0131   [8]  00 00 E0 CC 00 00 00 00
  can0  14FF0231   [8]  FC FF FF FF FF FF FF 3F
  can0  14FF0721   [8]  56 CB F0 FF FF FF FF FF
  can0  14FF0821   [8]  43 3B 01 FF CF 00 00 FF
  can0  08F01D13   [8]  6C 7D 20 FF 10 8A F5 AF
  can0  08F0090B   [8]  6C 7D 20 71 7D 80 7D FF
  can0  08FE6E0B   [8]  FF FE FF FE FF FE FF FE
  can0  08FF000B   [8]  00 00 FF FA 0C FF DF 92
  can0  0CFF000B   [8]  FF FF FF FF 00 FF 60 28
  can0  1001000B   [8]  FF FF FF FF FF FF FF FF
  can0  14FF0117   [8]  00 00 F0 FF FC FF 00 00
  can0  08F00200   [8]  FD FF FF FF FF FF FF FF
  can0  0CFF0200   [8]  00 01 FF FF FF 00 01 58
  can0  0CFF0500   [8]  FF FF FF FF FF FF FF FF
  can0  10F00300   [8]  DD 00 FF FF FF FC FF FF
  can0  14FF0600   [8]  FF 80 7F F7 FF FF FF FF
  can0  14FF0019   [8]  0F FF FF 01 14 FF FF BF
  can0  14FF02ED   [8]  F1 FF FF FF FF FF FF FF
  can0  10FF01E6   [8]  FF FF 7D CF FF FF BF C7
  can0  14FEAE30   [8]  FF FF 00 00 FF FF FF FF
  can0  14FF02EC   [8]  03 FF FF FF CF F0 F3 FF
  can0  14FF0331   [8]  FF FF CF FF 1C FF FF FF
  can0  08F01D13   [8]  6C 7D 20 FF 10 8A F5 A0
  can0  08F0090B   [8]  6C 7D 20 71 7D 80 7D FF
  can0  08FE6E0B   [8]  FF FE FF FE FF FE FF FE
  can0  08FF000B   [8]  00 00 FF FA 0C FF EF C4
  can0  14FE6F0B   [8]  FF FF FF FF FF FF FF FF
  can0  14FF0347   [8]  00 FF 3F FF FF FF FF FF
  can0  0CFE6C17   [8]  FF FF FF FF 00 FE 00 FE
  can0  14FF010B   [8]  FF 00 3F FF F0 FF 7F FF
  can0  08F00200   [8]  FD FF FF FF FF FF FF FF
  can0  0CF00400   [8]  50 7D 84 FF FF 00 F6 7D
  can0  0CFF0300   [8]  7D FF FF FF FF FF FF FF
  can0  10FF0000   [8]  FC A8 61 FC F3 28 F3 FC
  can0  14FF020B   [8]  7D 7D 7D 7D 80 80 FF FF
  can0  14FF0000   [8]  FF FF FF 00 30 FF FF FF
  can0  14FF0217   [8]  FF FF FF FF FF FF FF FF
  can0  14FF1017   [8]  FF FF 00 00 FF FD FF FF
  can0  14FE5A2F   [8]  FF FF FF FF FF FF FF FF
  can0  10FF0021   [8]  82 00 00 00 FF 3F 4D C8
  can0  10FF0047   [8]  C1 3F FF FF FF FF FF FF
  can0  14FF0521   [8]  0C FF 40 F4 FC 3F 3F 00
  can0  14FF0531   [8]  FF FF FF FF FF FF FF FF
  can0  08F01D13   [8]  6C 7D 20 FF 10 8A F5 C1
  can0  08F0090B   [8]  6C 7D 20 71 7D 80 7D FF
  can0  08FE6E0B   [8]  FF FE FF FE FF FE FF FE
  can0  08FF000B   [8]  00 00 FF FA 0C FF FF F6
  can0  0CFF000B   [8]  FF FF FF FF 00 FF 70 1A
  can0  10FF0117   [8]  F0 FA F0 FF FF FF FF FF
  can0  14FE4F0B   [8]  FF FF FF FF FF FF FF FF
  can0  14FEF217   [8]  FF FF FF FF FF FF FF FF
  can0  14FF000B   [8]  FC 5F C1 C1 C1 FF BF 1E
  can0  08F00200   [8]  FD FF FF FF FF FF FF FF
  can0  0CFF0200   [8]  00 01 FF FF FF 00 11 6A
  can0  18FF0400   [8]  03 C3 3F 03 CF 0D DF E6
  can0  0CFF0500   [8]  FF FF FF FF FF FF FF FF
  can0  14FEF100   [8]  FF FF FE 0C FF FF 1F FF
  can0  14FF0053   [8]  FF FF FF FF FF FF FF FF
  can0  14FF0030   [8]  F5 FF FF FF FF FF FF FF
  can0  08F01D13   [8]  6C 7D 20 FF 10 8A F5 D2
  can0  08F0090B   [8]  6C 7D 20 71 7D 80 7D FF
  can0  08FE6E0B   [8]  FF FE FF FE FF FE FF FE
  can0  08FF000B   [8]  00 00 FF FA 0C FF 0F 63
  can0  10FF010B   [8]  D7 06 71 7D 71 7D 32 6D
  can0  0CFE6C17   [8]  FF FF FF FF 00 FE 00 FE
  can0  14FDC40B   [8]  FF 0B 5F FF FF FF FF FF
  can0  14FEBF0B   [8]  FF FE FE FE FE FE FF FF
  can0  08F00200   [8]  FD FF FF FF FF FF FF FF
  can0  0CF00400   [8]  50 7D 84 FF FF 00 F6 7D
  can0  0CFF0300   [8]  7D FF FF FF FF FF FF FF
  can0  10FF0100   [8]  FF 3F FF FF FF FF 06 FC
  can0  14F00000   [8]  FF 7D 7D FF FF FF FF 28
  can0  10FF00E6   [8]  FF FF FF FF FF FF FF FF
  can0  08F01D13   [8]  6C 7D 20 FF 10 8A F5 E3
  can0  08F0090B   [8]  6C 7D 20 71 7D 80 7D FF
  can0  08FE6E0B   [8]  FF FE FF FE FF FE FF FE
  can0  08FF000B   [8]  00 00 FF FA 0C FF 1F 51
  can0  0CFF000B   [8]  FF FF FF FF 00 FF 80 8F
  can0  14D0FF17   [8]  FF FF FF FF FF FF FF FF
  can0  14F0010B   [8]  0F 00 FF FF FF 1C FF FF
  can0  08F00200   [8]  FD FF FF FF FF FF FF FF
  can0  0CFF0200   [8]  00 01 FF FF FF 00 21 3C
  can0  1CEBFF00   [8]  01 47 FF CB 05 02 2B 6F
  can0  0CFF0500   [8]  FF FF FF FF FF FF FF FF
  can0  14F00500   [8]  FF FF FF FF FF FF FF FF
  can0  14FF1100   [8]  3F F7 FF 00 7F 13 08 FD
  can0  10FF0019   [8]  FF FF 0F FF FF FF 02 FD
  can0  10FF01E6   [8]  FF FF 7D CF FF FF CF 59
  can0  08F01D13   [8]  6C 7D 20 FF 10 8A F5 F4
  can0  08F0090B   [8]  6C 7D 20 71 7D 80 7D FF
  can0  08FE6E0B   [8]  FF FE FF FE FF FE FF FE
  can0  08FF000B   [8]  00 00 FF FA 0C FF 2F 07
  can0  1001000B   [8]  FF FF FF FF FF FF FF FF
  can0  0CFE6C17   [8]  FF FF FF FF 00 FE 00 FE
  can0  08F00200   [8]  FD FF FF FF FF FF FF FF
  can0  0CF00400   [8]  50 7D 84 FF FF 00 F6 7D
  can0  0CFF0300   [8]  7D FF FF FF FF FF FF FF
  can0  10F00300   [8]  DD 00 FF FF FF FC FF FF
  can0  14FEDF00   [8]  85 FF FF FF FF FF FF FF
  can0  14FF0E00   [8]  FF FF FF FF FF FF 00 FB
  can0  08F01D13   [8]  6C 7D 20 FF 10 8A F5 05
  can0  08F0090B   [8]  6C 7D 20 71 7D 80 7D FF
  can0  08FE6E0B   [8]  FF FE FF FE FF FE FF FE
  can0  08FF000B   [8]  00 00 FF FA 0C FF 3F 35
  can0  0CFF000B   [8]  FF FF FF FF 00 FF 90 BD
  can0  14FEAE17   [8]  FF FF 00 00 FF FF 5F FF
  can0  08F00200   [8]  FD FF FF FF FF FF FF FF
  can0  0CFF0200   [8]  00 01 FF FF FF 00 31 0E
  can0  0CFF0500   [8]  FF FF FF FF FF FF FF FF
  can0  10FF0000   [8]  FC A8 61 FC F3 28 F3 FC
  can0  14FF0D00   [8]  04 FF FB 07 00 3C 3F 3C
  can0  10FF0021   [8]  82 00 00 00 FF 3F 4D C8
  can0  10FF0047   [8]  C1 3F FF FF FF FF FF FF
  can0  08F01D13   [8]  6C 7D 20 FF 10 8A F5 16
  can0  08F0090B   [8]  6C 7D 20 71 7D 80 7D FF
  can0  08FE6E0B   [8]  FF FE FF FE FF FE FF FE
  can0  08FF000B   [8]  00 00 FF FA 0C FF 4F AB
  can0  0CFE6C17   [8]  FF FF FF FF 00 FE 00 FE
  can0  10FF0117   [8]  F0 FA F0 FF FF FF FF FF
  can0  08F00200   [8]  FD FF FF FF FF FF FF FF
  can0  0CF00400   [8]  50 7D 84 FF FF 00 F6 7D
  can0  0CFF0300   [8]  7D FF FF FF FF FF FF FF
  can0  14FF0A00   [8]  FF FF FF 00 00 FF FF BF
  can0  08F01D13   [8]  6C 7D 20 FF 10 8A F5 27
  can0  08F0090B   [8]  6C 7D 20 71 7D 80 7D FF
  can0  08FE6E0B   [8]  FF FE FF FE FF FE FF FE
  can0  08FF000B   [8]  00 00 FF FA 0C FF 5F 99
  can0  0CFF000B   [8]  FF FF FF FF 00 FF A0 EB
  can0  10FF010B   [8]  01 07 71 7D 71 7D 32 6D
  can0  14FF0017   [8]  40 00 00 03 03 10 00 0C
  can0  08F00200   [8]  FD FF FF FF FF FF FF FF
  can0  0CFF0200   [8]  00 01 FF FF FF 00 41 90
  can0  0CFF0500   [8]  FF FF FF FF FF FF FF FF
  can0  10FF0100   [8]  FF 3F FF FF FF FF 06 FC
  can0  14FF0145   [8]  10 00 00 FF FF FF FF FF
  can0  14FF0900   [8]  FF FF FF FF FF FF FF FF
  can0  18F00100   [8]  FF FF FF FF 00 FF FF FF
  can0  14FEF200   [8]  FF FF 00 00 00 00 FF FF

[32m.[0mcansniffer output:
 [?25l[2J[HXX|ms | -- ID -- | data ...     < can0 # l=20 h=100 t=500 slots=1 >[H00
99999 | 14FEF200 | [1m[31mFF[0m [1m[31mFF[0m 00 00 00 00 [1m[31mFF[0m [1m[31mFF[0m ........
[2J[HXX|ms | -- ID -- | data ...     < can0 # l=20 h=100 t=500 slots=113 >[H01
00009 | 08F00200 | [1m[31mFD[0m [1m[31mFF[0m [1m[31mFF[0m [1m[31mFF[0m [1m[31mFF[0m [1m[31mFF[0m [1m[31mFF[0m [1m[31mFF[0m ........
00010 | 08F0090B | [1m[31m6C[0m [1m[31m7D[0m [1m[31m20[0m [1m[31m71[0m [1m[31m7D[0m [1m[31m80[0m [1m[31m7D[0m [1m[31mFF[0m [1m[31ml[0m[1m[31m}[0m[1m[31m [0m[1m[31mq[0m[1m[31m}[0m.[1m[31m}[0m.
00009 | 08F01D13 | [1m[31m6C[0m [1m[31m7D[0m [1m[31m20[0m [1m[31mFF[0m [1m[31m10[0m [1m[31m8A[0m [1m[31mF5[0m [1m[31m05[0m [1m[31ml[0m[1m[31m}[0m[1m[31m [0m.....
00010 | 08FE6E0B | [1m[31mFF[0m [1m[31mFE[0m [1m[31mFF[0m [1m[31mFE[0m [1m[31mFF[0m [1m[31mFE[0m [1m[31mFF[0m [1m[31mFE[0m ........
00009 | 08FF000B | 00 00 [1m[31mFF[0m [1m[31mFA[0m [1m[31m0C[0m [1m[31mFF[0m [1m[31m3F[0m [1m[31m35[0m ......[1m[31m?[0m[1m[31m5[0m
00020 | 0CF00400 | [1m[31m50[0m [1m[31m7D[0m [1m[31m84[0m [1m[31mFF[0m [1m[31mFF[0m 00 [1m[31mF6[0m [1m[31m7D[0m [1m[31mP[0m[1m[31m}[0m.....[1m[31m}[0m
00020 | 0CFE6C17 | [1m[31mFF[0m [1m[31mFF[0m [1m[31mFF[0m [1m[31mFF[0m 00 [1m[31mFE[0m 00 [1m[31mFE[0m ........
00019 | 0CFF000B | [1m[31mFF[0m [1m[31mFF[0m [1m[31mFF[0m [1m[31mFF[0m 00 [1m[31mFF[0m [1m[31m10[0m [1m[31mB6[0m ........
00020 | 0CFF0200 | 00 [1m[31m01[0m [1m[31mFF[0m [1m[31mFF[0m [1m[31mFF[0m 00 [1m[31mB1[0m [1m[31m05[0m ........
00019 | 0CFF0300 | [1m[31m7D[0m [1m[31mFF[0m [1m[31mFF[0m [1m[31mFF[0m [1m[31mFF[0m [1m[31mFF[0m [1m[31mFF[0m [1m[31mFF[0m [1m[31m}[0m.......
00020 | 0CFF0500 | [1m[31mFF[0m [1m[31mFF[0m [1m[31mFF[0m [1m[31mFF[0m [1m[31mFF[0m [1m[31mFF[0m [1m[31mFF[0m [1m[31mFF[0m ........
00049 | 1001000B | [1m[31mFF[0m [1m[31mFF[0m [1m[31mFF[0m [1m[31mFF[0m [1m[31mFF[0m [1m[31mFF[0m [1m[31mFF[0m [1m[31mFF[0m ........
00049 | 10F00300 | [1m[31mDD[0m 00 [1m[31mFF[0m [1m[31mFF[0m [1m[31mFF[0m [1m[31mFC[0m [1m[31mFF[0m [1m[31mFF[0m ........
00049 | 10FF0000 | [1m[31mFC[0m [1m[31mA8[0m [1m[31m61[0m [1m[31mFC[0m [1m[31mF3[0m [1m[31m28[0m [1m[31mF3[0m [1m[31mFC[0m ..[1m[31ma[0m..[1m[31m([0m..
00049 | 10FF0019 | [1m[31mFF[0m [1m[31mFF[0m [1m[31m0F[0m [1m[31mFF[0m [1m[31mFF[0m [1m[31mFF[0m [1m[31m02[0m [1m[31mFD[0m ........
00049 | 10FF0021 | [1m[31m82[0m 00 00 00 [1m[31mFF[0m [1m[31m3F[0m [1m[31m4D[0m [1m[31mC8[0m .....[1m[31m?[0m[1m[31mM[0m.
00049 | 10FF0047 | [1m[31mC1[0m [1m[31m3F[0m [1m[31mFF[0m [1m[31mFF[0m [1m[31mFF[0m [1m[31mFF[0m [1m[31mFF[0m [1m[31mFF[0m .[1m[31m?[0m......
00049 | 10FF00E6 | [1m[31mFF[0m [1m[31mFF[0m [1m[31mFF[0m [1m[31mFF[0m [1m[31mFF[0m [1m[31mFF[0m [1m[31mFF[0m [1m[31mFF[0m ........
00049 | 10FF0100 | [1m[31mFF[0m [1m[31m3F[0m [1m[31mFF[0m [1m[31mFF[0m [1m[31mFF[0m [1m[31mFF[0m [1m[31m06[0m [1m[31mFC[0m .[1m[31m?[0m......
00050 | 10FF010B | [1m[31mEA[0m [1m[31m0D[0m [1m[31m71[0m [1m[31m7D[0m [1m[31m71[0m [1m[31m7D[0m [1m[31m32[0m [1m[31m6D[0m ..[1m[31mq[0m[1m[31m}[0m[1m[31mq[0m[1m[31m}[0m[1m[31m2[0m[1m[31mm[0m
00050 | 10FF0117 | [1m[31mF0[0m [1m[31mFA[0m [1m[31mF0[0m [1m[31mFF[0m [1m[31mFF[0m [1m[31mFF[0m [1m[31mFF[0m [1m[31mFF[0m ........
00040 | 10FF01E6 | [1m[31mFF[0m [1m[31mFF[0m [1m[31m7D[0m [1m[31mCF[0m [1m[31mFF[0m [1m[31mFF[0m [1m[31m2F[0m [1m[31mFE[0m ..[1m[31m}[0m...[1m[31m/[0m.
00100 | 14D0FF17 | [1m[31mFF[0m [1m[31mFF[0m [1m[31mFF[0m [1m[31mFF[0m [1m[31mFF[0m [1m[31mFF[0m [1m[31mFF[0m [1m[31mFF[0m ........
00100 | 14F00000 | [1m[31mFF[0m [1m[31m7D[0m [1m[31m7D[0m [1m[31mFF[0m [1m[31mFF[0m [1m[31mFF[0m [1m[31mFF[0m [1m[31m28[0m .[1m[31m}[0m[1m[31m}[0m....[1m[31m([0m
00100 | 14F0010B | [1m[31m0F[0m 00 [1m[31mFF[0m [1m[31mFF[0m [1m[31mFF[0m [1m[31m1C[0m [1m[31mFF[0m [1m[31mFF[0m ........
00100 | 14F00500 | [1m[31mFF[0m [1m[31mFF[0m [1m[31mFF[0m [1m[31mFF[0m [1m[31mFF[0m [1m[31mFF[0m [1m[31mFF[0m [1m[31mFF[0m ........
00099 | 14FDC40B | [1m[31mFF[0m [1m[31m0B[0m [1m[31m5F[0m [1m[31mFF[0m [1m[31mFF[0m [1m[31mFF[0m [1m[31mFF[0m [1m[31mFF[0m ..[1m[31m_[0m.....
00100 | 14FE4F0B | [1m[31mFF[0m [1m[31mFF[0m [1m[31mFF[0m [1m[31mFF[0m [1m[31mFF[0m [1m[31mFF[0m [1m[31mFF[0m [1m[31mFF[0m ........
00100 | 14FE5A2F | [1m[31mFF[0m [1m[31mFF[0m [1m[31mFF[0m [1m[31mFF[0m [1m[31mFF[0m [1m[31mFF[0m [1m[31mFF[0m [1m[31mFF[0m ........
00100 | 14FE6F0B | [1m[31mFF[0m [1m[31mFF[0m [1m[31mFF[0m [1m[31mFF[0m [1m[31mFF[0m [1m[31mFF[0m [1m[31mFF[0m [1m[31mFF[0m ........
00100 | 14FEAE17 | [1m[31mFF[0m [1m[31mFF[0m 00 00 [1m[31mFF[0m [1m[31mFF[0m [1m[31m5F[0m [1m[31mFF[0m ......[1m[31m_[0m.
00099 | 14FEAE30 | [1m[31mFF[0m [1m[31mFF[0m 00 00 [1m[31mFF[0m [1m[31mFF[0m [1m[31mFF[0m [1m[31mFF[0m ........
00100 | 14FEBF0B | [1m[31mFF[0m [1m[31mFE[0m [1m[31mFE[0m [1m[31mFE[0m [1m[31mFE[0m [1m[31mFE[0m [1m[31mFF[0m [1m[31mFF[0m ........
00099 | 14FED521 | [1m[31mFF[0m [1m[31mFF[0m [1m[31mFC[0m [1m[31mFF[0m [1m[31mFF[0m [1m[31mFF[0m [1m[31mFF[0m [1m[31mFF[0m ........
00100 | 14FEDF00 | [1m[31m85[0m [1m[31mFF[0m [1m[31mFF[0m [1m[31mFF[0m [1m[31mFF[0m [1m[31mFF[0m [1m[31mFF[0m [1m[31mFF[0m ........
00100 | 14FEF100 | [1m[31mFF[0m [1m[31mFF[0m [1m[31mFE[0m [1m[31m0C[0m [1m[31mFF[0m [1m[31mFF[0m [1m[31m1F[0m [1m[31mFF[0m ........
00100 | 14FEF200 | FF FF 00 00 00 00 FF FF ........
00100 | 14FEF217 | [1m[31mFF[0m [1m[31mFF[0m [1m[31mFF[0m [1m[31mFF[0m [1m[31mFF[0m [1m[31mFF[0m [1m[31mFF[0m [1m[31mFF[0m ........
00099 | 14FF0000 | [1m[31mFF[0m [1m[31mFF[0m [1m[31mFF[0m 00 [1m[31m30[0m [1m[31mFF[0m [1m[31mFF[0m [1m[31mFF[0m ....[1m[31m0[0m...
00100 | 14FF000B | [1m[31mFC[0m [1m[31m5F[0m [1m[31mC1[0m [1m[31mC1[0m [1m[31mC1[0m [1m[31mFF[0m [1m[31m6F[0m [1m[31mEF[0m .[1m[31m_[0m....[1m[31mo[0m.
00099 | 14FF0017 | [1m[31m40[0m 00 00 [1m[31m03[0m [1m[31m03[0m [1m[31m10[0m 00 [1m[31m0C[0m [1m[31m@[0m.......
00100 | 14FF0019 | [1m[31m0F[0m [1m[31mFF[0m [1m[31mFF[0m [1m[31m01[0m [1m[31m14[0m [1m[31mFF[0m [1m[31mFF[0m [1m[31mBF[0m ........
00100 | 14FF0030 | [1m[31mF5[0m [1m[31mFF[0m [1m[31mFF[0m [1m[31mFF[0m [1m[31mFF[0m [1m[31mFF[0m [1m[31mFF[0m [1m[31mFF[0m ........
00100 | 14FF0053 | [1m[31mFF[0m [1m[31mFF[0m [1m[31mFF[0m [1m[31mFF[0m [1m[31mFF[0m [1m[31mFF[0m [1m[31mFF[0m [1m[31mFF[0m ........
00100 | 14FF010B | [1m[31mFF[0m 00 [1m[31m3F[0m [1m[31mFF[0m [1m[31mF0[0m [1m[31mFF[0m [1m[31m7F[0m [1m[31mFF[0m ..[1m[31m?[0m.....
00099 | 14FF0117 | 00 00 [1m[31mF0[0m [1m[31mFF[0m [1m[31mFC[0m [1m[31mFF[0m 00 00 ........
00100 | 14FF0131 | 00 00 [1m[31mE0[0m [1m[31mCC[0m 00 00 00 00 ........
00099 | 14FF0145 | [1m[31m10[0m 00 00 [1m[31mFF[0m [1m[31mFF[0m [1m[31mFF[0m [1m[31mFF[0m [1m[31mFF[0m ........
00100 | 14FF020B | [1m[31m7D[0m [1m[31m7D[0m [1m[31m7D[0m [1m[31m7D[0m [1m[31m80[0m [1m[31m80[0m [1m[31mFF[0m [1m[31mFF[0m [1m[31m}[0m[1m[31m}[0m[1m[31m}[0m[1m[31m}[0m....
00099 | 14FF0217 | [1m[31mFF[0m [1m[31mFF[0m [1m[31mFF[0m [1m[31mFF[0m [1m[31mFF[0m [1m[31mFF[0m [1m[31mFF[0m [1m[31mFF[0m ........
00099 | 14FF0231 | [1m[31mFC[0m [1m[31mFF[0m [1m[31mFF[0m [1m[31mFF[0m [1m[31mFF[0m [1m[31mFF[0m [1m[31mFF[0m [1m[31m3F[0m .......[1m[31m?[0m
00100 | 14FF02EC | [1m[31m03[0m [1m[31mFF[0m [1m[31mFF[0m [1m[31mFF[0m [1m[31mCF[0m [1m[31mF0[0m [1m[31mF3[0m [1m[31mFF[0m ........
00100 | 14FF02ED | [1m[31mF1[0m [1m[31mFF[0m [1m[31mFF[0m [1m[31mFF[0m [1m[31mFF[0m [1m[31mFF[0m [1m[31mFF[0m [1m[31mFF[0m ........
00100 | 14FF0331 | [1m[31mFF[0m [1m[31mFF[0m [1m[31mCF[0m [1m[31mFF[0m [1m[31m1C[0m [1m[31mFF[0m [1m[31mFF[0m [1m[31mFF[0m ........
00100 | 14FF0347 | 00 [1m[31mFF[0m [1m[31m3F[0m [1m[31mFF[0m [1m[31mFF[0m [1m[31mFF[0m [1m[31mFF[0m [1m[31mFF[0m ..[1m[31m?[0m.....
00099 | 14FF0521 | [1m[31m0C[0m [1m[31mFF[0m [1m[31m40[0m [1m[31mF4[0m [1m[31mFC[0m [1m[31m3F[0m [1m[31m3F[0m 00 ..[1m[31m@[0m..[1m[31m?[0m[1m[31m?[0m.
00099 | 14FF0531 | [1m[31mFF[0m [1m[31mFF[0m [1m[31mFF[0m [1m[31mFF[0m [1m[31mFF[0m [1m[31mFF[0m [1m[31mFF[0m [1m[31mFF[0m ........
00099 | 14FF0600 | [1m[31mFF[0m [1m[31m80[0m [1m[31m7F[0m [1m[31mF7[0m [1m[31mFF[0m [1m[31mFF[0m [1m[31mFF[0m [1m[31mFF[0m ........
00100 | 14FF0700 | [1m[31mFF[0m [1m[31mFF[0m [1m[31mFF[0m [1m[31mFF[0m [1m[31mFF[0m [1m[31mFF[0m [1m[31mFF[0m [1m[31mFF[0m ........
00100 | 14FF0721 | [1m[31mB0[0m [1m[31mC6[0m [1m[31mF0[0m [1m[31mFF[0m [1m[31mFF[0m [1m[31mFF[0m [1m[31mFF[0m [1m[31mFF[0m ........
00100 | 14FF0821 | [1m[31mC2[0m [1m[31m36[0m [1m[31m01[0m [1m[31mFF[0m [1m[31mCF[0m 00 00 [1m[31mFF[0m .[1m[31m6[0m......
00100 | 14FF0900 | [1m[31mFF[0m [1m[31mFF[0m [1m[31mFF[0m [1m[31mFF[0m [1m[31mFF[0m [1m[31mFF[0m [1m[31mFF[0m [1m[31mFF[0m ........
00099 | 14FF0A00 | [1m[31mFF[0m [1m[31mFF[0m [1m[31mFF[0m 00 00 [1m[31mFF[0m [1m[31mFF[0m [1m[31mBF[0m ........
00100 | 14FF0D00 | [1m[31m04[0m [1m[31mFF[0m [1m[31mFB[0m [1m[31m07[0m 00 [1m[31m3C[0m [1m[31m3F[0m [1m[31m3C[0m .....[1m[31m<[0m[1m[31m?[0m[1m[31m<[0m
00100 | 14FF0E00 | [1m[31mFF[0m [1m[31mFF[0m [1m[31mFF[0m [1m[31mFF[0m [1m[31mFF[0m [1m[31mFF[0m 00 [1m[31mFB[0m ........
00099 | 14FF1017 | [1m[31mFF[0m [1m[31mFF[0m 00 00 [1m[31mFF[0m [1m[31mFD[0m [1m[31mFF[0m [1m[31mFF[0m ........
00100 | 14FF1100 | [1m[31m3F[0m [1m[31mF7[0m [1m[31mFF[0m 00 [1m[31m7F[0m [1m[31m13[0m [1m[31m08[0m [1m[31mFD[0m [1m[31m?[0m.......
00099 | 14FF1600 | [1m[31mFF[0m [1m[31mFF[0m [1m[31mFF[0m [1m[31mFF[0m [1m[31mFF[0m [1m[31mFF[0m [1m[31mFF[0m [1m[31mFF[0m ........
99999 | 18F00100 | [1m[31mFF[0m [1m[31mFF[0m [1m[31mFF[0m [1m[31mFF[0m 00 [1m[31mFF[0m [1m[31mFF[0m [1m[31mFF[0m ........
99999 | 18FD0517 | [1m[31m7F[0m [1m[31mFF[0m [1m[31mFF[0m [1m[31mFF[0m [1m[31mFF[0m [1m[31mFF[0m [1m[31mFF[0m [1m[31mFF[0m ........
99999 | 18FD0900 | 00 00 00 00 00 00 00 00 ........
99999 | 18FD7D17 | [1m[31mFF[0m [1m[31mFF[0m [1m[31mFF[0m [1m[31mFF[0m [1m[31mFF[0m [1m[31mFF[0m [1m[31mFF[0m [1m[31mFF[0m ........
99999 | 18FE700B | [1m[31mFF[0m [1m[31mFF[0m [1m[31mFF[0m [1m[31mFF[0m [1m[31mFF[0m [1m[31mFF[0m [1m[31mFF[0m [1m[31mFF[0m ........
99999 | 18FEF521 | [1m[31mFF[0m [1m[31mFF[0m [1m[31mFF[0m [1m[31mFF[0m [1m[31mFF[0m [1m[31mFF[0m [1m[31mFF[0m [1m[31mFF[0m ........
99999 | 18FEF721 | [1m[31mFF[0m [1m[31mFF[0m [1m[31mFF[0m [1m[31mFF[0m [1m[31m1C[0m [1m[31m01[0m [1m[31mFF[0m [1m[31mFF[0m ........
99999 | 18FEF921 | [1m[31mFF[0m [1m[31mFF[0m [1m[31mFF[0m [1m[31mFF[0m [1m[31mFF[0m [1m[31mFF[0m [1m[31mFF[0m [1m[31mFF[0m ........
99999 | 18FF0025 | [1m[31mF0[0m [1m[31mFF[0m [1m[31m64[0m [1m[31m0A[0m 00 00 00 00 ..[1m[31md[0m.....
99999 | 18FF0047 | [1m[31mFE[0m [1m[31mFE[0m [1m[31m99[0m [1m[31mFF[0m [1m[31mFF[0m [1m[31mFC[0m [1m[31mFF[0m [1m[31mFF[0m ........
99999 | 18FF0098 | [1m[31mFF[0m [1m[31mFF[0m [1m[31mFF[0m [1m[31mFF[0m [1m[31mFF[0m [1m[31mFF[0m [1m[31mFF[0m [1m[31mFF[0m ........
99999 | 18FF00E6 | 00 [1m[31mFC[0m [1m[31mF3[0m [1m[31mCF[0m [1m[31mF0[0m [1m[31mFF[0m [1m[31mFF[0m [1m[31mFF[0m ........
99999 | 18FF0198 | 00 00 00 00 00 00 [1m[31mFF[0m [1m[31mFF[0m ........
99999 | 18FF0247 | [1m[31mFF[0m [1m[31mFF[0m [1m[31mFF[0m [1m[31mFF[0m [1m[31mFF[0m [1m[31mFF[0m [1m[31mFF[0m [1m[31mFF[0m ........
99999 | 18FF0298 | 00 [1m[31mFC[0m [1m[31mFF[0m [1m[31mFF[0m [1m[31mFF[0m [1m[31mFF[0m [1m[31mFF[0m [1m[31mFF[0m ........
99999 | 18FF0317 | [1m[31mFF[0m [1m[31mFF[0m [1m[31mFF[0m [1m[31mFF[0m [1m[31mFF[0m [1m[31mFF[0m [1m[31mFF[0m [1m[31mFF[0m ........
00100 | 18FF0400 | [1m[31m03[0m [1m[31mC3[0m [1m[31m3F[0m [1m[31m03[0m [1m[31mCF[0m [1m[31m0D[0m [1m[31m8F[0m [1m[31m1C[0m ..[1m[31m?[0m.....
99999 | 18FF0417 | [1m[31mC0[0m 00 00 [1m[31mFF[0m [1m[31mFF[0m [1m[31mFF[0m [1m[31mFF[0m [1m[31mFF[0m ........
99999 | 18FF0421 | [1m[31mFF[0m [1m[31mFF[0m [1m[31mFF[0m [1m[31mFF[0m [1m[31mFF[0m [1m[31mFB[0m [1m[31m7F[0m [1m[31mDC[0m ........
99999 | 18FF0447 | [1m[31m01[0m [1m[31mFF[0m [1m[31mFF[0m [1m[31m03[0m [1m[31mF0[0m [1m[31mFF[0m [1m[31mFF[0m [1m[31mFF[0m ........
99999 | 18FF0517 | 00 00 00 [1m[31mF0[0m [1m[31mFF[0m [1m[31mFF[0m [1m[31mFF[0m [1m[31mFF[0m ........
99999 | 18FF0547 | [1m[31mFF[0m [1m[31mFF[0m [1m[31mFF[0m [1m[31mFF[0m [1m[31mFF[0m [1m[31mFF[0m [1m[31mFF[0m [1m[31mFF[0m ........
99999 | 18FF0617 | [1m[31mFF[0m [1m[31mFF[0m [1m[31mFF[0m [1m[31mFF[0m [1m[31mFF[0m [1m[31mFF[0m [1m[31mFF[0m [1m[31mFF[0m ........
99999 | 18FF0621 | [1m[31mC3[0m [1m[31m1E[0m [1m[31mC0[0m [1m[31m03[0m [1m[31m4C[0m [1m[31mC7[0m [1m[31mFF[0m [1m[31mFF[0m ....[1m[31mL[0m...
99999 | 18FF0717 | [1m[31mFF[0m [1m[31mFF[0m [1m[31mFF[0m [1m[31mFF[0m [1m[31mFF[0m [1m[31mFF[0m [1m[31mFF[0m [1m[31mFF[0m ........
99999 | 18FF0817 | 00 [1m[31m0C[0m 00 00 [1m[31mFF[0m [1m[31mFF[0m [1m[31mFF[0m [1m[31mFF[0m ........
99999 | 18FF0900 | [1m[31m3C[0m [1m[31m35[0m [1m[31mFF[0m [1m[31mFF[0m [1m[31mFF[0m [1m[31mFF[0m [1m[31mFF[0m [1m[31mFF[0m [1m[31m<[0m[1m[31m5[0m......
99999 | 18FF0917 | [1m[31mFF[0m [1m[31m03[0m [1m[31mFF[0m [1m[31mFF[0m [1m[31mFF[0m [1m[31mFF[0m [1m[31mFF[0m [1m[31mFF[0m ........
99999 | 18FF0921 | [1m[31m3F[0m [1m[31mFF[0m [1m[31mFF[0m [1m[31mFF[0m [1m[31mFF[0m [1m[31mFF[0m [1m[31mFF[0m [1m[31mFF[0m [1m[31m?[0m.......
99999 | 18FF1317 | [1m[31mFF[0m [1m[31mFF[0m [1m[31mFF[0m [1m[31mFF[0m [1m[31mFF[0m [1m[31mFF[0m [1m[31mFF[0m [1m[31mFF[0m ........
99999 | 18FF1517 | [1m[31mFF[0m [1m[31mFF[0m [1m[31mFF[0m [1m[31mFF[0m [1m[31mFF[0m [1m[31mFF[0m [1m[31mFF[0m [1m[31mFF[0m ........
99999 | 18FF1521 | [1m[31mFF[0m [1m[31mFF[0m [1m[31mFF[0m [1m[31mFF[0m [1m[31mFF[0m [1m[31mFF[0m [1m[31mC0[0m [1m[31m12[0m ........
99999 | 18FF1621 | [1m[31mFC[0m [1m[31mFF[0m [1m[31mFF[0m [1m[31mFF[0m [1m[31mFF[0m [1m[31mFF[0m [1m[31mFF[0m [1m[31mFF[0m ........
99999 | 18FF8000 | [1m[31mFD[0m [1m[31m0B[0m [1m[31m04[0m [1m[31m0F[0m [1m[31m04[0m [1m[31m21[0m 00 [1m[31m03[0m .....[1m[31m![0m..
99999 | 18FF8025 | [1m[31mFD[0m 00 [1m[31m04[0m [1m[31m0F[0m [1m[31m30[0m 00 [1m[31mFF[0m [1m[31m03[0m ....[1m[31m0[0m...
99999 | 18FFC025 | [1m[31m43[0m [1m[31m0C[0m [1m[31mFF[0m [1m[31m40[0m [1m[31m50[0m [1m[31mF0[0m [1m[31mFF[0m [1m[31mFF[0m [1m[31mC[0m..[1m[31m@[0m[1m[31mP[0m...
99999 | 18FFC125 | [1m[31mFF[0m [1m[31mFC[0m [1m[31m5A[0m [1m[31m33[0m [1m[31m01[0m 00 00 00 ..[1m[31mZ[0m[1m[31m3[0m....
99999 | 18FFC225 | 00 [1m[31m10[0m [1m[31mA0[0m [1m[31m01[0m [1m[31mC6[0m [1m[31m01[0m [1m[31m57[0m 00 ......[1m[31mW[0m.
99999 | 18FFC325 | [1m[31m25[0m [1m[31m41[0m [1m[31mF3[0m [1m[31m50[0m [1m[31mC0[0m 00 [1m[31m41[0m [1m[31mC0[0m [1m[31m%[0m[1m[31mA[0m.[1m[31mP[0m..[1m[31mA[0m.
99999 | 18FFC425 | [1m[31m13[0m [1m[31mD4[0m [1m[31m13[0m [1m[31mD4[0m [1m[31mF0[0m [1m[31mFF[0m [1m[31mF0[0m [1m[31mFF[0m ........
99999 | 18FFC525 | [1m[31m01[0m [1m[31m05[0m [1m[31m15[0m [1m[31m14[0m [1m[31m01[0m [1m[31m44[0m 00 [1m[31m01[0m .....[1m[31mD[0m..
99999 | 18FFC625 | [1m[31m10[0m 00 00 00 00 00 [1m[31m20[0m [1m[31m17[0m ......[1m[31m [0m.
99999 | 18FFC725 | [1m[31m43[0m 00 [1m[31mFC[0m [1m[31mFF[0m [1m[31mFF[0m [1m[31mFF[0m [1m[31mFF[0m [1m[31mFF[0m [1m[31mC[0m.......
99999 | 18FFC925 | 00 00 00 00 00 00 [1m[31mF0[0m [1m[31mFF[0m ........
99999 | 18FFCA25 | [1m[31m01[0m [1m[31m46[0m [1m[31m5F[0m [1m[31m5F[0m [1m[31mAC[0m [1m[31m0D[0m [1m[31m64[0m [1m[31m19[0m .[1m[31mF[0m[1m[31m_[0m[1m[31m_[0m..[1m[31md[0m.
[2J[HXX|ms | -- ID -- | data ...     < can0 # l=20 h=100 t=500 slots=138 >[H02
00009 | 08F00200 | FD FF FF FF FF FF FF FF ........
00010 | 08F0090B | 6C 7D 20 71 7D 80 7D FF l} q}.}.
00009 | 08F01D13 | 6C 7D 20 FF 10 8A F5 [1m[31m49[0m l} ....[1m[31mI[0m
00010 | 08FE6E0B | FF FE FF FE FF FE FF FE ........
00009 | 08FF000B | 00 00 FF FA 0C FF [1m[31m7F[0m [1m[31mFD[0m ........
00020 | 0CF00400 | 50 7D 84 FF FF 00 F6 7D P}.....}
00020 | 0CFE6C17 | FF FF FF FF 00 FE 00 FE ........
00019 | 0CFF000B | FF FF FF FF 00 FF [1m[31mB0[0m [1m[31mD9[0m ........
00020 | 0CFF0200 | 00 01 FF FF FF 00 [1m[31m51[0m [1m[31mA2[0m ......[1m[31mQ[0m.
00019 | 0CFF0300 | 7D FF FF FF FF FF FF FF }.......
00020 | 0CFF0500 | FF FF FF FF FF FF FF FF ........
00049 | 1001000B | FF FF FF FF FF FF FF FF ........
00049 | 10F00300 | DD 00 FF FF FF FC FF FF ........
00049 | 10FF0000 | FC A8 61 FC F3 28 F3 FC ..a..(..
00049 | 10FF0019 | FF FF 0F FF FF FF 02 FD ........
00049 | 10FF0021 | 82 00 00 00 FF 3F 4D C8 .....?M.
00049 | 10FF0047 | C1 3F FF FF FF FF FF FF .?......
00049 | 10FF00E6 | FF FF FF FF FF FF FF FF ........
00049 | 10FF0100 | FF 3F FF FF FF FF 06 FC .?......
00050 | 10FF010B | [1m[31m58[0m [1m[31m01[0m 71 7D 71 7D 32 6D [1m[31mX[0m.q}q}2m
00050 | 10FF0117 | F0 FA F0 FF FF FF FF FF ........
00039 | 10FF01E6 | FF FF 7D CF FF FF [1m[31m6F[0m [1m[31m36[0m ..}...[1m[31mo[0m[1m[31m6[0m
00100 | 14D0FF17 | FF FF FF FF FF FF FF FF ........
00100 | 14F00000 | FF 7D 7D FF FF FF FF 28 .}}....(
00100 | 14F0010B | 0F 00 FF FF FF 1C FF FF ........
00100 | 14F00500 | FF FF FF FF FF FF FF FF ........
00099 | 14FDC40B | FF 0B 5F FF FF FF FF FF .._.....
00100 | 14FE4F0B | FF FF FF FF FF FF FF FF ........
00100 | 14FE5A2F | FF FF FF FF FF FF FF FF ........
00100 | 14FE6F0B | FF FF FF FF FF FF FF FF ........
00100 | 14FEAE17 | FF FF 00 00 FF FF 5F FF ......_.
00099 | 14FEAE30 | FF FF 00 00 FF FF FF FF ........
00100 | 14FEBF0B | FF FE FE FE FE FE FF FF ........
00099 | 14FED521 | FF FF FC FF FF FF FF FF ........
00100 | 14FEDF00 | 85 FF FF FF FF FF FF FF ........
00100 | 14FEF100 | FF FF FE 0C FF FF 1F FF ........
00100 | 14FEF200 | FF FF 00 00 00 00 FF FF ........
00100 | 14FEF217 | FF FF FF FF FF FF FF FF ........
00099 | 14FF0000 | FF FF FF 00 30 FF FF FF ....0...
00100 | 14FF000B | FC 5F C1 C1 C1 FF [1m[31m8F[0m [1m[31m48[0m ._.....[1m[31mH[0m
00099 | 14FF0017 | 40 00 00 03 03 10 00 0C @.......
00100 | 14FF0019 | 0F FF FF 01 14 FF FF BF ........
00100 | 14FF0030 | F5 FF FF FF FF FF FF FF ........
00100 | 14FF0053 | FF FF FF FF FF FF FF FF ........
00100 | 14FF010B | FF 00 3F FF F0 FF 7F FF ..?.....
00099 | 14FF0117 | 00 00 F0 FF FC FF 00 00 ........
00100 | 14FF0131 | 00 00 E0 CC 00 00 00 00 ........
00099 | 14FF0145 | 10 00 00 FF FF FF FF FF ........
00100 | 14FF020B | 7D 7D 7D 7D 80 80 FF FF }}}}....
00099 | 14FF0217 | FF FF FF FF FF FF FF FF ........
00099 | 14FF0231 | FC FF FF FF FF FF FF 3F .......?
00100 | 14FF02EC | 03 FF FF FF CF F0 F3 FF ........
00100 | 14FF02ED | F1 FF FF FF FF FF FF FF ........
00100 | 14FF0331 | FF FF CF FF 1C FF FF FF ........
00100 | 14FF0347 | 00 FF 3F FF FF FF FF FF ..?.....
00099 | 14FF0521 | 0C FF 40 F4 FC 3F 3F 00 ..@..??.
00099 | 14FF0531 | FF FF FF FF FF FF FF FF ........
00099 | 14FF0600 | FF 80 7F F7 FF FF FF FF ........
00100 | 14FF0700 | FF FF FF FF FF FF FF FF ........
00100 | 14FF0721 | [1m[31m64[0m [1m[31mC8[0m F0 FF FF FF FF FF [1m[31md[0m.......
00097 | 14FF0821 | [1m[31mEA[0m [1m[31m38[0m 01 FF CF 00 00 FF .[1m[31m8[0m......
00100 | 14FF0900 | FF FF FF FF FF FF FF FF ........
00099 | 14FF0A00 | FF FF FF 00 00 FF FF BF ........
00100 | 14FF0D00 | 04 FF FB 07 00 3C 3F 3C .....<?<
00100 | 14FF0E00 | FF FF FF FF FF FF 00 FB ........
00099 | 14FF1017 | FF FF 00 00 FF FD FF FF ........
00100 | 14FF1100 | 3F F7 FF 00 7F 13 08 FD ?.......
99999 | 14FF1200 | [1m[31mFF[0m [1m[31mFF[0m [1m[31m0D[0m [1m[31m0D[0m [1m[31m3C[0m [1m[31m01[0m [1m[31mEA[0m [1m[31mFF[0m ....[1m[31m<[0m...
00099 | 14FF1600 | FF FF FF FF FF FF FF FF ........
99999 | 18DEEE17 | [1m[31mF0[0m [1m[31mFF[0m [1m[31mFF[0m [1m[31mFF[0m [1m[31mFF[0m [1m[31mFF[0m [1m[31mFF[0m [1m[31mFF[0m ........
99999 | 18E00019 | 00 [1m[31mFF[0m [1m[31mFF[0m [1m[31mFC[0m [1m[31mFF[0m [1m[31mFF[0m [1m[31mFF[0m [1m[31mFF[0m ........
00100 | 18F00100 | FF FF FF FF 00 FF FF FF ........
99999 | 18FD0517 | 7F FF FF FF FF FF FF FF ........
99999 | 18FD0900 | 00 00 00 00 00 00 00 00 ........
99999 | 18FD0917 | [1m[31mFF[0m [1m[31mFF[0m [1m[31mFF[0m [1m[31mFF[0m [1m[31mFF[0m [1m[31mFF[0m [1m[31mFF[0m [1m[31mFF[0m ........
99999 | 18FD7D17 | FF FF FF FF FF FF FF FF ........
99999 | 18FD9500 | [1m[31mFF[0m [1m[31mFF[0m [1m[31mFF[0m [1m[31mFF[0m [1m[31mFF[0m [1m[31mFF[0m [1m[31mFF[0m [1m[31mFF[0m ........
99999 | 18FE700B | FF FF FF FF FF FF FF FF ........
99999 | 18FEC117 | 00 00 00 00 00 00 00 00 ........
99999 | 18FEE500 | [1m[31mFF[0m [1m[31mFF[0m [1m[31mFF[0m [1m[31mFF[0m [1m[31mFF[0m [1m[31mFF[0m [1m[31mFF[0m [1m[31mFF[0m ........
99999 | 18FEE617 | [1m[31m2C[0m [1m[31m1B[0m [1m[31m15[0m [1m[31m04[0m [1m[31m48[0m [1m[31m28[0m [1m[31m7D[0m [1m[31m7D[0m [1m[31m,[0m...[1m[31mH[0m[1m[31m([0m[1m[31m}[0m[1m[31m}[0m
99999 | 18FEEE00 | [1m[31mFF[0m [1m[31mFF[0m [1m[31mFF[0m [1m[31mFF[0m [1m[31mFF[0m [1m[31mFF[0m [1m[31mFF[0m [1m[31mFF[0m ........
99999 | 18FEEF00 | [1m[31mFF[0m [1m[31mFF[0m [1m[31mFF[0m [1m[31mFF[0m [1m[31mFF[0m [1m[31mFF[0m [1m[31mFF[0m [1m[31mFE[0m ........
99999 | 18FEF521 | FF FF FF FF FF FF FF FF ........
99999 | 18FEF721 | FF FF FF FF 1C 01 FF FF ........
99999 | 18FEF800 | [1m[31mFF[0m [1m[31mFF[0m [1m[31mFF[0m [1m[31mFF[0m 00 [1m[31m3D[0m [1m[31mFF[0m [1m[31mFF[0m .....[1m[31m=[0m..
99999 | 18FEF847 | [1m[31mFF[0m [1m[31mFF[0m [1m[31mFF[0m [1m[31mFF[0m 00 [1m[31m3D[0m [1m[31mFF[0m [1m[31mFF[0m .....[1m[31m=[0m..
99999 | 18FEF921 | FF FF FF FF FF FF FF FF ........
99999 | 18FF0000 | [1m[31m1F[0m [1m[31m0A[0m [1m[31mDB[0m [1m[31m05[0m [1m[31m7D[0m [1m[31mE3[0m [1m[31mFF[0m [1m[31mFF[0m ....[1m[31m}[0m...
99999 | 18FF0017 | [1m[31m05[0m [1m[31m30[0m [1m[31m65[0m [1m[31m6E[0m [1m[31mC0[0m [1m[31mFC[0m [1m[31mFF[0m [1m[31m15[0m .[1m[31m0[0m[1m[31me[0m[1m[31mn[0m....
99999 | 18FF0025 | F0 FF 64 0A 00 00 00 00 ..d.....
99999 | 18FF0047 | FE FE 99 FF FF FC FF FF ........
99999 | 18FF0098 | FF FF FF FF FF FF FF FF ........
99999 | 18FF00E6 | 00 FC F3 CF F0 FF FF FF ........
99999 | 18FF0117 | [1m[31mFF[0m [1m[31mFF[0m [1m[31mFF[0m [1m[31mFF[0m [1m[31mFF[0m [1m[31mFF[0m [1m[31mFF[0m [1m[31mFF[0m ........
99999 | 18FF0198 | 00 00 00 00 00 00 FF FF ........
99999 | 18FF0217 | [1m[31m03[0m [1m[31m30[0m 00 00 00 [1m[31m10[0m 00 00 .[1m[31m0[0m......
99999 | 18FF0247 | FF FF FF FF FF FF FF FF ........
99999 | 18FF0298 | 00 FC FF FF FF FF FF FF ........
99999 | 18FF0300 | [1m[31mFF[0m [1m[31mFF[0m [1m[31mC3[0m [1m[31mFD[0m [1m[31mFD[0m [1m[31mFF[0m [1m[31mFF[0m [1m[31mFF[0m ........
99999 | 18FF0317 | FF FF FF FF FF FF FF FF ........
00099 | 18FF0400 | 03 C3 3F 03 CF 0D [1m[31mAF[0m [1m[31m78[0m ..?....[1m[31mx[0m
99999 | 18FF0417 | C0 00 00 FF FF FF FF FF ........
99999 | 18FF0421 | FF FF FF FF FF FB 7F DC ........
99999 | 18FF0447 | 01 FF FF 03 F0 FF FF FF ........
99999 | 18FF0503 | [1m[31mFF[0m [1m[31mFF[0m [1m[31mFF[0m [1m[31mFF[0m [1m[31mFF[0m [1m[31mFF[0m [1m[31mFF[0m [1m[31mFF[0m ........
99999 | 18FF0517 | 00 00 00 F0 FF FF FF FF ........
99999 | 18FF0547 | FF FF FF FF FF FF FF FF ........
99999 | 18FF0617 | FF FF FF FF FF FF FF FF ........
99999 | 18FF0621 | C3 1E C0 03 4C C7 FF FF ....L...
99999 | 18FF0631 | [1m[31mFF[0m [1m[31mFF[0m [1m[31mFF[0m [1m[31mFC[0m [1m[31mFC[0m [1m[31m33[0m [1m[31mFF[0m [1m[31mFF[0m .....[1m[31m3[0m..
99999 | 18FF0647 | [1m[31mFF[0m [1m[31mFF[0m [1m[31mFF[0m [1m[31mFF[0m [1m[31mFF[0m [1m[31mFF[0m [1m[31mFF[0m [1m[31mFF[0m ........
99999 | 18FF0717 | FF FF FF FF FF FF FF FF ........
99999 | 18FF0721 | [1m[31mFF[0m [1m[31m3F[0m [1m[31mFF[0m [1m[31mFF[0m [1m[31mFF[0m [1m[31m30[0m [1m[31m14[0m [1m[31m96[0m .[1m[31m?[0m...[1m[31m0[0m..
99999 | 18FF0817 | 00 0C 00 00 FF FF FF FF ........
99999 | 18FF0900 | 3C 35 FF FF FF FF FF FF <5......
99999 | 18FF0917 | FF 03 FF FF FF FF FF FF ........
99999 | 18FF0921 | 3F FF FF FF FF FF FF FF ?.......
99999 | 18FF1317 | FF FF FF FF FF FF FF FF ........
99999 | 18FF1517 | FF FF FF FF FF FF FF FF ........
99999 | 18FF1521 | FF FF FF FF FF FF C0 12 ........
99999 | 18FF1621 | FC FF FF FF FF FF FF FF ........
99999 | 18FF8000 | FD 0B 04 0F 04 21 00 03 .....!..
99999 | 18FF800B | [1m[31mFD[0m [1m[31m13[0m [1m[31m04[0m [1m[31m0F[0m [1m[31mEC[0m [1m[31mFF[0m [1m[31mFF[0m [1m[31m03[0m ........
99999 | 18FF8013 | [1m[31mFD[0m [1m[31m17[0m [1m[31m04[0m [1m[31m0F[0m [1m[31m04[0m 00 00 [1m[31m03[0m ........
99999 | 18FF8017 | [1m[31mFD[0m [1m[31m25[0m [1m[31m04[0m [1m[31m0F[0m [1m[31m4C[0m [1m[31mB8[0m [1m[31m09[0m [1m[31m03[0m .[1m[31m%[0m..[1m[31mL[0m...
99999 | 18FF8025 | FD 00 04 0F 30 00 FF 03 ....0...
99999 | 18FFAD01 | [1m[31mFF[0m [1m[31mFF[0m [1m[31mFF[0m [1m[31mFF[0m [1m[31mFF[0m [1m[31mFF[0m [1m[31mFF[0m [1m[31mFF[0m ........
99999 | 18FFC025 | 43 0C FF 40 50 F0 FF FF C..@P...
99999 | 18FFC125 | FF FC 5A 33 01 00 00 00 ..Z3....
99999 | 18FFC225 | 00 10 A0 01 C6 01 57 00 ......W.
99999 | 18FFC325 | 25 41 F3 50 C0 00 41 C0 %A.P..A.
99999 | 18FFC425 | 13 D4 13 D4 F0 FF F0 FF ........
99999 | 18FFC525 | 01 05 15 14 01 44 00 01 .....D..
99999 | 18FFC625 | 10 00 00 00 00 00 20 17 ...... .
99999 | 18FFC725 | 43 00 FC FF FF FF FF FF C.......
99999 | 18FFC925 | 00 00 00 00 00 00 F0 FF ........
99999 | 18FFCA25 | 01 46 5F 5F AC 0D 64 19 .F__..d.
[H03
[B[B00010 | 08F01D13 | 6C 7D 20 FF 10 8A F5 [1m[31m8D[0m l} .....
[B00009 | 08FF000B | 00 00 FF FA 0C FF [1m[31mBF[0m [1m[31m3E[0m .......[1m[31m>[0m
[B[B00019 | 0CFF000B | FF FF FF FF 00 FF [1m[31m50[0m [1m[31m7E[0m ......[1m[31mP[0m[1m[31m~[0m
00020 | 0CFF0200 | 00 01 FF FF FF 00 [1m[31mF1[0m [1m[31mCD[0m ........
[B[B[B[B[B[B[B[B[B[B00050 | 10FF010B | [1m[31m36[0m [1m[31m05[0m 71 7D 71 7D 32 6D [1m[31m6[0m.q}q}2m
[B00039 | 10FF01E6 | FF FF 7D CF FF FF [1m[31mAF[0m [1m[31mF5[0m ..}.....
[B[B[B[B[B[B[B[B[B[B[B[B[B[B[B[B[B00100 | 14FF000B | FC 5F C1 C1 C1 FF [1m[31mAF[0m [1m[31m2C[0m ._.....[1m[31m,[0m
[B[B[B[B[B[B[B[B[B[B[B[B[B[B[B[B[B[B[B00100 | 14FF0721 | [1m[31mCA[0m [1m[31mCA[0m F0 FF FF FF FF FF ........
00100 | 14FF0821 | [1m[31m4C[0m [1m[31m3A[0m 01 FF CF 00 00 FF [1m[31mL[0m[1m[31m:[0m......
[B[B[B[B[B[B[B[B[B[B[B[B[B[B[B[B[B[B[B[B[B[B[B[B[B[B[B[B[B[B[B[B[B[B[B[B[B[B[B[B00100 | 18FF0400 | 03 C3 3F 03 CF 0D [1m[31mCF[0m [1m[31mD4[0m ..?.....
[B[B[B[B[B[B[B[B[B[B[B[B[B[B[B[B[B[B[B[B00479 | 18FF8000 | FD 0B 04 0F 04 21 00 03 .....!..
[B[B[B00477 | 18FF8025 | FD 00 04 0F 30 00 FF 03 ....0...
[B[B[B[B[B[B[B[B[B[B[B[2J[HXX|ms | -- ID -- | data ...     < can0 # l=20 h=100 t=500 slots=143 >[H04
00009 | 08F00200 | FD FF FF FF FF FF FF FF ........
00010 | 08F0090B | 6C 7D 20 71 7D 80 7D FF l} q}.}.
00010 | 08F01D13 | 6C 7D 20 FF 10 8A F5 [1m[31mC1[0m l} .....
00010 | 08FE6E0B | FF FE FF FE FF FE FF FE ........
00010 | 08FF000B | 00 00 FF FA 0C FF [1m[31mFF[0m [1m[31mF6[0m ........
00020 | 0CF00400 | 50 7D 84 FF FF 00 F6 7D P}.....}
00020 | 0CFE6C17 | FF FF FF FF 00 FE 00 FE ........
00019 | 0CFF000B | FF FF FF FF 00 FF [1m[31mF0[0m [1m[31m11[0m ........
00020 | 0CFF0200 | 00 01 FF FF FF 00 [1m[31m91[0m [1m[31m61[0m .......[1m[31ma[0m
00019 | 0CFF0300 | 7D FF FF FF FF FF FF FF }.......
00020 | 0CFF0500 | FF FF FF FF FF FF FF FF ........
00049 | 1001000B | FF FF FF FF FF FF FF FF ........
00049 | 10F00300 | DD 00 FF FF FF FC FF FF ........
99999 | 10FECA0B | [1m[31mC1[0m [1m[31mFF[0m [1m[31m12[0m [1m[31mF0[0m [1m[31mED[0m [1m[31m06[0m [1m[31mFF[0m [1m[31mFF[0m ........
99999 | 10FECA17 | 00 [1m[31mFF[0m [1m[31m54[0m 00 [1m[31m05[0m [1m[31m4A[0m [1m[31mFF[0m [1m[31mFF[0m ..[1m[31mT[0m..[1m[31mJ[0m..
99999 | 10FECA25 | 00 [1m[31mFF[0m [1m[31mC8[0m [1m[31mFF[0m [1m[31mFF[0m [1m[31m25[0m [1m[31mFF[0m [1m[31mFF[0m .....[1m[31m%[0m..
99999 | 10FECA98 | 00 [1m[31mFF[0m [1m[31mFE[0m [1m[31m2B[0m [1m[31m9F[0m [1m[31m01[0m [1m[31mFF[0m [1m[31mFF[0m ...[1m[31m+[0m....
00049 | 10FF0000 | FC A8 61 FC F3 28 F3 FC ..a..(..
00049 | 10FF0019 | FF FF 0F FF FF FF 02 FD ........
00049 | 10FF0021 | 82 00 00 00 FF 3F 4D C8 .....?M.
00049 | 10FF0047 | C1 3F FF FF FF FF FF FF .?......
00049 | 10FF00E6 | FF FF FF FF FF FF FF FF ........
00049 | 10FF0100 | FF 3F FF FF FF FF 06 FC .?......
00050 | 10FF010B | [1m[31m84[0m [1m[31m09[0m 71 7D 71 7D 32 6D ..q}q}2m
00050 | 10FF0117 | F0 FA F0 FF FF FF FF FF ........
00039 | 10FF01E6 | FF FF 7D CF FF FF [1m[31mEF[0m [1m[31m3D[0m ..}....[1m[31m=[0m
00100 | 14D0FF17 | FF FF FF FF FF FF FF FF ........
00100 | 14F00000 | FF 7D 7D FF FF FF FF 28 .}}....(
00100 | 14F0010B | 0F 00 FF FF FF 1C FF FF ........
00100 | 14F00500 | FF FF FF FF FF FF FF FF ........
00099 | 14FDC40B | FF 0B 5F FF FF FF FF FF .._.....
